!Keysight Technologies,N5221A,MY56011522,A.10.47.06
!Date: Tuesday, September 29, 2020 15:15:48
!Correction: S11(Full 2 Port(1,2)) 
!S21(Full 2 Port(1,2)) 
!S12(Full 2 Port(1,2)) 
!S22(Full 2 Port(1,2)) 
!S2P File: Measurements: S11, S21, S12, S22:
# Hz S  dB   R 50
650000000 -0.059178729 -2.7511649 -26.906178 85.71489 -26.723053 85.460236 -0.06836503 -2.5861061
650218750 -0.059114769 -2.7547131 -26.882751 85.741898 -26.70298 85.495987 -0.068119131 -2.5915751
650437500 -0.058808599 -2.7667558 -26.865839 85.76712 -26.683926 85.527115 -0.067961015 -2.599154
650656250 -0.058754526 -2.7721369 -26.844522 85.818001 -26.663153 85.541985 -0.067378581 -2.6069694
650875000 -0.05830159 -2.7824948 -26.825474 85.833626 -26.6434 85.569763 -0.067565292 -2.6136589
651093750 -0.057821915 -2.7881021 -26.805248 85.848267 -26.625273 85.609695 -0.067580432 -2.6200671
651312500 -0.057743218 -2.7976849 -26.785334 85.851387 -26.603601 85.60347 -0.06729985 -2.6315761
651531250 -0.05806917 -2.803057 -26.765476 85.867516 -26.582985 85.621391 -0.067574956 -2.6351182
651750000 -0.058233429 -2.8128276 -26.747082 85.868668 -26.562767 85.632782 -0.067178555 -2.6426647
651968750 -0.058176234 -2.822382 -26.724325 85.837013 -26.541203 85.61734 -0.066761583 -2.6500711
652187500 -0.058090184 -2.8278155 -26.704952 85.813683 -26.519306 85.599655 -0.066364601 -2.6586251
652406250 -0.058474675 -2.8342338 -26.692789 85.775124 -26.503916 85.565651 -0.066526629 -2.6633508
652625000 -0.058838807 -2.8396699 -26.677877 85.737328 -26.489265 85.485802 -0.066747174 -2.6705046
652843750 -0.058741327 -2.8445783 -26.673174 85.762619 -26.483 85.531425 -0.06682878 -2.672627
653062500 -0.058157697 -2.8526287 -26.656809 85.826042 -26.4741 85.560097 -0.066718616 -2.6790352
653281250 -0.057856698 -2.8564813 -26.642149 85.842896 -26.454676 85.605934 -0.066772819 -2.6865511
653500000 -0.057961654 -2.8655646 -26.622805 85.850098 -26.433994 85.60656 -0.066631094 -2.6944947
653718750 -0.057774451 -2.8728266 -26.601183 85.858154 -26.415035 85.604622 -0.066238917 -2.7010679
653937500 -0.058541499 -2.8797574 -26.587677 85.812126 -26.397263 85.579903 -0.065882534 -2.7067873
654156250 -0.058696065 -2.8839171 -26.574163 85.805542 -26.382658 85.551414 -0.066393189 -2.7116082
654375000 -0.058576412 -2.8906929 -26.560154 85.814484 -26.371914 85.571381 -0.066324048 -2.7190454
654593750 -0.058226392 -2.8978219 -26.550018 85.851585 -26.356071 85.602959 -0.066149957 -2.722187
654812500 -0.058380958 -2.9039922 -26.532 85.89521 -26.340038 85.627777 -0.066294558 -2.7293601
655031250 -0.057593685 -2.9120965 -26.513231 85.895958 -26.318569 85.656853 -0.066212274 -2.7370498
655250000 -0.057663541 -2.9181893 -26.495695 85.909645 -26.29838 85.670273 -0.06618984 -2.7446027
655468750 -0.057597477 -2.9272642 -26.47455 85.910866 -26.281168 85.675133 -0.065856569 -2.7490635
655687500 -0.057931393 -2.9344678 -26.453148 85.909889 -26.259241 85.648445 -0.065697499 -2.7577724
655906250 -0.057574954 -2.9402385 -26.434866 85.902473 -26.243595 85.641487 -0.065985985 -2.7623906
656125000 -0.057555869 -2.9466369 -26.413685 85.899864 -26.221823 85.626152 -0.065887176 -2.770318
656343750 -0.058182094 -2.9553213 -26.395571 85.858688 -26.201208 85.612656 -0.065980442 -2.7733371
656562500 -0.057482406 -2.9611652 -26.378807 85.868713 -26.183903 85.590614 -0.066539884 -2.7819917
656781250 -0.058035105 -2.9702637 -26.358137 85.850998 -26.172604 85.556389 -0.066415861 -2.7862749
657000000 -0.058272555 -2.9726532 -26.34227 85.827797 -26.149279 85.553123 -0.066720121 -2.7907658
657218750 -0.058426537 -2.9806621 -26.32494 85.799767 -26.133972 85.538757 -0.067400306 -2.7988014
657437500 -0.058775295 -2.9852734 -26.310419 85.779221 -26.117817 85.49897 -0.067366913 -2.8061168
657656250 -0.058908783 -2.9935968 -26.292406 85.771011 -26.103456 85.474617 -0.067449346 -2.8111172
657875000 -0.059025254 -2.9994414 -26.278933 85.749367 -26.084499 85.453926 -0.067284122 -2.8175867
658093750 -0.059332579 -3.0042493 -26.264761 85.717148 -26.067905 85.435638 -0.06757383 -2.822582
658312500 -0.059607998 -3.0102384 -26.247906 85.708824 -26.054672 85.423676 -0.067789555 -2.8283811
658531250 -0.059646901 -3.0172675 -26.231266 85.704086 -26.039602 85.419769 -0.067867972 -2.8336008
658750000 -0.059852894 -3.0246005 -26.216898 85.693962 -26.021164 85.412094 -0.067881174 -2.8371997
658968750 -0.059297591 -3.0288196 -26.200813 85.681396 -26.00588 85.393074 -0.068088792 -2.8435619
659187500 -0.059046067 -3.0390096 -26.179598 85.687752 -25.987476 85.392006 -0.067181312 -2.8502207
659406250 -0.059668973 -3.045599 -26.162346 85.689362 -25.968016 85.411491 -0.067092896 -2.8555627
659625000 -0.059679035 -3.0528212 -26.140316 85.681267 -25.947432 85.393776 -0.067158975 -2.8610497
659843750 -0.059780192 -3.0612824 -26.123442 85.680313 -25.930965 85.398666 -0.06712357 -2.8686781
660062500 -0.058899194 -3.0703917 -26.101608 85.674797 -25.912804 85.395172 -0.067230672 -2.874722
660281250 -0.059563182 -3.0764213 -26.079256 85.682762 -25.884676 85.399078 -0.066973366 -2.8820925
660500000 -0.059154481 -3.0838389 -26.054417 85.66256 -25.861313 85.401436 -0.067136697 -2.89025
660718750 -0.059943955 -3.0942221 -26.027508 85.683792 -25.831005 85.392548 -0.067117326 -2.8997958
660937500 -0.059952617 -3.1037891 -25.997793 85.658752 -25.800486 85.363091 -0.067302912 -2.9092197
661156250 -0.05956338 -3.1159954 -25.965513 85.612701 -25.762955 85.307854 -0.067753077 -2.9209504
661375000 -0.060865976 -3.1291306 -25.930813 85.554283 -25.723776 85.236534 -0.068410411 -2.9354961
661593750 -0.060604174 -3.138341 -25.88916 85.481667 -25.678865 85.105377 -0.069412388 -2.9491403
661812500 -0.062119868 -3.1565289 -25.84396 85.331764 -25.630817 84.856277 -0.071559705 -2.9641814
662031250 -0.064101942 -3.1703706 -25.79895 85.098015 -25.583443 84.400978 -0.075176857 -2.97995
662250000 -0.067003839 -3.1851768 -25.755802 84.749062 -25.614912 83.495369 -0.081851907 -2.9635327
662468750 -0.071143202 -3.1948423 -25.729029 84.283882 -25.721216 83.250122 -0.084126309 -2.9216492
662687500 -0.07520242 -3.191087 -25.73156 83.762741 -25.762026 83.454681 -0.081736229 -2.9088879
662906250 -0.078335457 -3.1847632 -25.755772 83.308556 -25.739973 83.644882 -0.080216594 -2.9198208
663125000 -0.080615506 -3.1828279 -25.766832 83.002609 -25.676336 83.545097 -0.080926239 -2.9382839
663343750 -0.084944449 -3.1841028 -25.760633 82.421448 -25.614605 83.005356 -0.084888399 -2.9587705
663562500 -0.094169155 -3.158644 -25.812428 81.287376 -25.62253 81.728569 -0.094984971 -2.9495656
663781250 -0.099516481 -3.0497139 -26.113342 80.348015 -25.929974 80.613373 -0.10207811 -2.84112
664000000 -0.086060196 -2.9658296 -26.396711 82.040199 -26.193605 82.210251 -0.088362515 -2.7607253
664218750 -0.073051944 -2.985641 -26.358831 83.724289 -26.154751 83.699051 -0.077370562 -2.7756
664437500 -0.068004318 -3.0195975 -26.263474 84.400856 -26.065401 84.327431 -0.073168658 -2.8061357
664656250 -0.066520005 -3.045614 -26.190006 84.703056 -25.99441 84.636375 -0.071224749 -2.8291943
664875000 -0.064787902 -3.0639985 -26.133036 84.857819 -25.940052 84.757736 -0.07003054 -2.8474941
665093750 -0.064834535 -3.0763154 -26.094547 84.9086 -25.900688 84.829277 -0.069636978 -2.8593309
665312500 -0.06460093 -3.0833094 -26.064903 84.97113 -25.872438 84.887207 -0.069649071 -2.8669713
665531250 -0.06400986 -3.0926101 -26.040302 85.010986 -25.844746 84.966522 -0.068667471 -2.8758094
665750000 -0.063410647 -3.1008422 -26.018637 85.064583 -25.824093 85.016045 -0.068218157 -2.8806057
665968750 -0.063455395 -3.1063902 -26.001282 85.124336 -25.804077 85.070076 -0.067762688 -2.8893449
666187500 -0.063340448 -3.110647 -25.983889 85.204781 -25.777065 85.152069 -0.067132957 -2.8921025
666406250 -0.06251014 -3.1193728 -25.962276 85.304375 -25.751524 85.211823 -0.066979624 -2.8982022
666625000 -0.062202718 -3.1269286 -25.943169 85.377106 -25.730757 85.2854 -0.066584565 -2.9040675
666843750 -0.061527144 -3.1327691 -25.920696 85.454102 -25.704441 85.298286 -0.066207431 -2.9124086
667062500 -0.060975917 -3.1431768 -25.89599 85.501617 -25.6821 85.353348 -0.066524521 -2.9194427
667281250 -0.061168376 -3.1497195 -25.873556 85.544281 -25.658203 85.379745 -0.065908358 -2.9258251
667500000 -0.06066202 -3.1593902 -25.848036 85.586517 -25.632132 85.415771 -0.065806367 -2.9319036
667718750 -0.060121972 -3.16608 -25.824179 85.630989 -25.608595 85.427826 -0.065423593 -2.9394171
667937500 -0.060176853 -3.1761434 -25.798946 85.640488 -25.586288 85.424873 -0.065490209 -2.9411914
668156250 -0.059695259 -3.182431 -25.772474 85.691124 -25.564661 85.447098 -0.064787179 -2.9513004
668375000 -0.059498299 -3.1930206 -25.747271 85.683365 -25.539883 85.455338 -0.064605653 -2.9572794
668593750 -0.059113309 -3.1955767 -25.727648 85.699921 -25.514559 85.439995 -0.064869903 -2.9637451
668812500 -0.058858186 -3.2087908 -25.704134 85.690872 -25.491209 85.448357 -0.064403139 -2.9715004
669031250 -0.058614317 -3.2159777 -25.678392 85.687248 -25.467705 85.441299 -0.064627878 -2.9781766
669250000 -0.059190735 -3.2206872 -25.655243 85.700806 -25.447311 85.418854 -0.064903758 -2.9839849
669468750 -0.059476487 -3.2285531 -25.635218 85.694115 -25.426331 85.362297 -0.065120079 -2.9894555
669687500 -0.059276365 -3.2350368 -25.611525 85.723366 -25.403532 85.331421 -0.065174691 -2.9937041
669906250 -0.060017198 -3.244535 -25.584417 85.732628 -25.401608 85.251694 -0.066322006 -2.9903173
670125000 -0.060330339 -3.2500169 -25.55793 85.716194 -25.399189 85.267601 -0.065774575 -2.9863529
670343750 -0.060119834 -3.2632821 -25.529936 85.680359 -25.380964 85.313332 -0.0659113 -2.9950767
670562500 -0.059754804 -3.2737215 -25.499924 85.637238 -25.358109 85.331108 -0.065562427 -3.0007262
670781250 -0.060401835 -3.284055 -25.470245 85.582047 -25.333675 85.311172 -0.065607488 -3.0081277
671000000 -0.061072882 -3.29161 -25.444302 85.490555 -25.313049 85.282661 -0.066430941 -3.0132167
671218750 -0.062036313 -3.3022125 -25.421217 85.388298 -25.291616 85.232574 -0.066775851 -3.0167363
671437500 -0.063045792 -3.3084376 -25.400518 85.270119 -25.276833 85.188072 -0.066868745 -3.0192335
671656250 -0.064862706 -3.314043 -25.382553 85.164192 -25.262959 85.140572 -0.066995397 -3.0205121
671875000 -0.066033326 -3.313663 -25.361506 85.066711 -25.249722 85.100937 -0.067291789 -3.0211461
672093750 -0.067116886 -3.3233247 -25.344099 84.901199 -25.235895 85.09333 -0.067420691 -3.0248842
672312500 -0.068237454 -3.3300266 -25.325296 84.656754 -25.224253 85.090294 -0.067398399 -3.0281219
672531250 -0.071410961 -3.3276286 -25.334036 84.277855 -25.208883 85.089569 -0.067704238 -3.0332417
672750000 -0.072704293 -3.2979312 -25.406473 84.014801 -25.192497 85.084709 -0.067571044 -3.0322611
672968750 -0.069907971 -3.27669 -25.473742 84.351524 -25.175737 85.082008 -0.067838751 -3.0393224
673187500 -0.06579107 -3.2742338 -25.466549 84.837372 -25.155928 85.081917 -0.067748979 -3.041451
673406250 -0.064392082 -3.2875593 -25.425795 85.111176 -25.139109 85.082939 -0.067642301 -3.0470352
673625000 -0.06373094 -3.3026161 -25.379379 85.208427 -25.11842 85.050606 -0.067631736 -3.0494444
673843750 -0.064348862 -3.3139544 -25.336754 85.199173 -25.094479 85.002327 -0.067585617 -3.0561175
674062500 -0.064262204 -3.3268368 -25.303289 85.128326 -25.072159 84.89431 -0.069116347 -3.0616438
674281250 -0.064949416 -3.3375323 -25.275448 85.006538 -25.056271 84.78447 -0.069983646 -3.0659282
674500000 -0.067105845 -3.3490579 -25.243248 84.769379 -25.041191 84.629082 -0.072140917 -3.0708814
674718750 -0.071294755 -3.336647 -25.263037 84.23053 -25.045002 84.214256 -0.075704552 -3.0626905
674937500 -0.069141209 -3.291342 -25.385668 84.478821 -25.164949 84.271767 -0.074914359 -3.0175467
675156250 -0.063811742 -3.3046651 -25.357143 85.128685 -25.147795 84.965889 -0.069169141 -3.020308
675375000 -0.062600538 -3.3194704 -25.302795 85.301178 -25.095171 85.168228 -0.067312926 -3.0375273
675593750 -0.06330204 -3.3292031 -25.262079 85.363174 -25.054157 85.191353 -0.066801995 -3.0480902
675812500 -0.063118055 -3.33868 -25.230509 85.348824 -25.025633 85.203445 -0.066215359 -3.0535791
676031250 -0.063850075 -3.3461587 -25.204359 85.340683 -24.999769 85.192108 -0.066372223 -3.059628
676250000 -0.063685119 -3.3570302 -25.183741 85.324829 -24.980095 85.178169 -0.066300668 -3.0627193
676468750 -0.064180493 -3.360014 -25.163977 85.304634 -24.963518 85.172867 -0.066971622 -3.0657296
676687500 -0.064077601 -3.3687456 -25.147758 85.285553 -24.946205 85.177361 -0.066463575 -3.0700648
676906250 -0.064396769 -3.3719122 -25.128517 85.287865 -24.9275 85.206039 -0.066437945 -3.0744984
677125000 -0.063975409 -3.3777266 -25.112143 85.312737 -24.906761 85.228668 -0.06615369 -3.0781596
677343750 -0.064247914 -3.382652 -25.093208 85.328308 -24.886395 85.219704 -0.066053405 -3.0839193
677562500 -0.063952617 -3.3877909 -25.074085 85.361755 -24.862545 85.231514 -0.066204071 -3.0900285
677781250 -0.063177526 -3.3942819 -25.048407 85.351631 -24.844543 85.242302 -0.066587076 -3.095381
678000000 -0.062805682 -3.4032638 -25.030081 85.317871 -24.821772 85.235954 -0.067579851 -3.1018715
678218750 -0.063256666 -3.408864 -25.009134 85.289703 -24.801388 85.219627 -0.068012156 -3.1057932
678437500 -0.062898204 -3.4164438 -24.995201 85.26889 -24.783203 85.206787 -0.068378933 -3.1077697
678656250 -0.063316561 -3.4191096 -24.975266 85.30407 -24.760197 85.206017 -0.068212129 -3.1130471
678875000 -0.063222781 -3.4277227 -24.950754 85.310768 -24.740328 85.172791 -0.068252631 -3.1161828
679093750 -0.064203598 -3.4354656 -24.928953 85.299065 -24.720552 85.15905 -0.067775361 -3.1213908
679312500 -0.064906918 -3.44504 -24.905281 85.270103 -24.699722 85.142517 -0.067837842 -3.1253974
679531250 -0.065581106 -3.4508104 -24.883278 85.251907 -24.679169 85.127907 -0.067904927 -3.1316803
679750000 -0.065821841 -3.4576271 -24.859812 85.176254 -24.658209 85.057335 -0.069645628 -3.135664
679968750 -0.066062286 -3.4638932 -24.840061 85.102257 -24.638361 85.01442 -0.070099846 -3.1392484
680187500 -0.066622227 -3.4683123 -24.825073 84.99884 -24.620054 84.962753 -0.070786811 -3.1414349
680406250 -0.067470215 -3.4712489 -24.81526 84.886536 -24.60111 84.882133 -0.071642488 -3.1464691
680625000 -0.068051599 -3.472317 -24.808195 84.805664 -24.59199 84.794594 -0.07233987 -3.1487958
680843750 -0.068503812 -3.4665699 -24.810799 84.776695 -24.583517 84.726547 -0.072901115 -3.1468251
681062500 -0.068662174 -3.4675994 -24.810255 84.810875 -24.583158 84.706551 -0.072148591 -3.1452734
681281250 -0.069126852 -3.4687474 -24.799025 84.883171 -24.581537 84.702736 -0.071829297 -3.1418653
681500000 -0.067932062 -3.4713891 -24.790716 84.963379 -24.574869 84.755089 -0.071784809 -3.1370928
681718750 -0.066939868 -3.4754879 -24.774174 85.038597 -24.568378 84.817879 -0.071800187 -3.1372554
681937500 -0.067222968 -3.4826558 -24.760975 85.071144 -24.550703 84.877029 -0.071828216 -3.1393559
682156250 -0.066458248 -3.4865098 -24.738832 85.117554 -24.540428 84.972107 -0.071225941 -3.1390448
682375000 -0.066256702 -3.494514 -24.719494 85.157051 -24.519373 85.031296 -0.070803329 -3.1450388
682593750 -0.066186361 -3.4986658 -24.696159 85.187164 -24.496447 85.099808 -0.069995269 -3.1511745
682812500 -0.066404313 -3.5057642 -24.676628 85.195732 -24.47208 85.109352 -0.069691934 -3.1590767
683031250 -0.067006737 -3.5160174 -24.6516 85.207664 -24.446739 85.134575 -0.069089323 -3.1647537
683250000 -0.066047907 -3.5167158 -24.629265 85.241646 -24.422173 85.129776 -0.068700969 -3.1714845
683468750 -0.065951861 -3.525219 -24.603636 85.262169 -24.39776 85.133339 -0.069376253 -3.175524
683687500 -0.066212773 -3.5342627 -24.579576 85.272072 -24.37509 85.141716 -0.070035137 -3.1788437
683906250 -0.066258922 -3.5424435 -24.556578 85.261032 -24.351326 85.119064 -0.070023917 -3.1834636
684125000 -0.06631048 -3.5514739 -24.533524 85.250725 -24.326092 85.119171 -0.070531726 -3.1887009
684343750 -0.066277519 -3.5591912 -24.507168 85.214233 -24.302624 85.091011 -0.07065133 -3.1944647
684562500 -0.067084834 -3.5661991 -24.479692 85.188248 -24.27383 85.047279 -0.070568644 -3.2045307
684781250 -0.067550629 -3.5753706 -24.451244 85.119415 -24.24733 84.986305 -0.070721045 -3.2140305
685000000 -0.069293723 -3.5844705 -24.422379 85.004578 -24.220779 84.867706 -0.071179681 -3.2265782
685218750 -0.070971549 -3.5897834 -24.40633 84.816414 -24.2078 84.73156 -0.072406933 -3.2288866
685437500 -0.072633751 -3.591491 -24.405428 84.678795 -24.205864 84.640182 -0.073658474 -3.2254996
685656250 -0.072867468 -3.5862758 -24.408222 84.637947 -24.204056 84.624939 -0.073539257 -3.2210865
685875000 -0.072645694 -3.5842917 -24.411924 84.640793 -24.195303 84.645767 -0.073685415 -3.2223442
686093750 -0.071713455 -3.5846369 -24.40694 84.713669 -24.181051 84.668877 -0.073592775 -3.2239463
686312500 -0.071560822 -3.5868845 -24.398159 84.789246 -24.166124 84.670685 -0.073403999 -3.2296355
686531250 -0.071090929 -3.5920234 -24.381132 84.852463 -24.150133 84.651695 -0.0737103 -3.233624
686750000 -0.070629135 -3.5979524 -24.361374 84.916 -24.137209 84.616692 -0.074320666 -3.2336187
686968750 -0.069904812 -3.60727 -24.337658 84.954521 -24.129322 84.606056 -0.074538425 -3.2348185
687187500 -0.069521882 -3.6112227 -24.317432 84.988991 -24.124039 84.634377 -0.074605852 -3.2329297
687406250 -0.069217145 -3.6226153 -24.297785 84.996704 -24.109352 84.669952 -0.074328922 -3.2308211
687625000 -0.069705278 -3.62972 -24.273514 85.003998 -24.093758 84.725578 -0.074016646 -3.2329655
687843750 -0.069490246 -3.6360333 -24.25296 85.026131 -24.078218 84.776367 -0.073801212 -3.237905
688062500 -0.069674984 -3.6443145 -24.229778 85.023918 -24.058023 84.836884 -0.073533781 -3.2419503
688281250 -0.069457553 -3.6503098 -24.20838 85.037018 -24.038134 84.864944 -0.073426709 -3.2492957
688500000 -0.069733128 -3.6566861 -24.184137 85.016312 -24.013302 84.86628 -0.073382951 -3.2628582
688718750 -0.069901057 -3.6632607 -24.16164 85.016869 -23.986841 84.894943 -0.072951846 -3.2713411
688937500 -0.070308849 -3.6743574 -24.138683 84.971382 -23.961538 84.88298 -0.073431164 -3.2767949
689156250 -0.070993505 -3.6806896 -24.115166 84.926796 -23.936684 84.841896 -0.074174076 -3.2834458
689375000 -0.071295545 -3.6857579 -24.101719 84.87352 -23.915838 84.783524 -0.074479863 -3.2877946
689593750 -0.071268693 -3.6840611 -24.086832 84.873032 -23.902697 84.768791 -0.075297557 -3.2866964
689812500 -0.071191981 -3.6924469 -24.077578 84.874306 -23.890049 84.779869 -0.07466387 -3.2884672
690031250 -0.071151614 -3.6989727 -24.057266 84.930954 -23.872593 84.79821 -0.074826658 -3.2970302
690250000 -0.071129657 -3.7065423 -24.034719 84.934326 -23.849224 84.82354 -0.074404694 -3.3040733
690468750 -0.071361214 -3.7118285 -24.010237 84.942245 -23.827066 84.855804 -0.074359626 -3.3124394
690687500 -0.071096495 -3.7240455 -23.987551 84.938675 -23.805361 84.854332 -0.074599244 -3.3215413
690906250 -0.071274534 -3.7296414 -23.960886 84.94873 -23.780981 84.850273 -0.074411541 -3.3266411
691125000 -0.071749538 -3.7414248 -23.937078 84.922112 -23.756754 84.843018 -0.07442677 -3.3344018
691343750 -0.071785152 -3.751487 -23.90834 84.899582 -23.732025 84.835098 -0.074904881 -3.3409076
691562500 -0.07285133 -3.7606382 -23.883205 84.86055 -23.710344 84.826141 -0.075216755 -3.3498683
691781250 -0.073364988 -3.7702498 -23.860779 84.747604 -23.680506 84.777824 -0.075417042 -3.3574727
692000000 -0.073980011 -3.7780278 -23.83827 84.660652 -23.651711 84.682289 -0.076781295 -3.3687694
692218750 -0.076031983 -3.7787669 -23.83325 84.485809 -23.636326 84.514679 -0.078624725 -3.3755155
692437500 -0.076303519 -3.7730229 -23.849689 84.478523 -23.650299 84.446564 -0.079628251 -3.3671076
692656250 -0.075066559 -3.7755554 -23.839453 84.625351 -23.642653 84.574509 -0.078050449 -3.3667464
692875000 -0.073908381 -3.782567 -23.817827 84.692345 -23.62302 84.638359 -0.077207834 -3.37286
693093750 -0.073757306 -3.7927709 -23.794098 84.714577 -23.600172 84.659859 -0.07735654 -3.3825569
693312500 -0.073811039 -3.8053665 -23.771879 84.72982 -23.580645 84.679901 -0.077062912 -3.3904984
