!Keysight Technologies,N5221A,MY56011522,A.10.47.06
!Date: Tuesday, September 29, 2020 15:15:11
!Correction: S11(Full 2 Port(1,2)) 
!S21(Full 2 Port(1,2)) 
!S12(Full 2 Port(1,2)) 
!S22(Full 2 Port(1,2)) 
!S2P File: Measurements: S11, S21, S12, S22:
# Hz S  dB   R 50
650000000 -0.055901047 -2.3478107 -28.432156 86.085503 -28.250191 85.806213 -0.064419486 -2.154089
650218750 -0.056148283 -2.353168 -28.419024 86.071465 -28.237659 85.780464 -0.064800553 -2.1602068
650437500 -0.056280054 -2.3612192 -28.398796 86.005432 -28.225418 85.796181 -0.064965449 -2.1627688
650656250 -0.056680154 -2.3656242 -28.37767 86.027679 -28.20639 85.801178 -0.064838029 -2.1705155
650875000 -0.056715157 -2.3725169 -28.36121 86.000984 -28.181866 85.810966 -0.06450136 -2.1759603
651093750 -0.056806281 -2.3824842 -28.342745 85.986473 -28.162256 85.818222 -0.06479653 -2.1836939
651312500 -0.056849409 -2.389199 -28.316366 85.938927 -28.141695 85.778236 -0.065296762 -2.1897976
651531250 -0.057012152 -2.3936458 -28.3002 85.910561 -28.117979 85.720222 -0.065376513 -2.1957526
651750000 -0.057437833 -2.4014437 -28.277554 85.858727 -28.096582 85.691116 -0.065051123 -2.200448
651968750 -0.058090568 -2.4053516 -28.259085 85.790817 -28.078936 85.627029 -0.065831982 -2.2088711
652187500 -0.058155771 -2.4140201 -28.244926 85.712944 -28.05772 85.547516 -0.065274283 -2.2141614
652406250 -0.058166053 -2.4173877 -28.227427 85.667747 -28.046078 85.486671 -0.065994605 -2.2206683
652625000 -0.058927529 -2.4223032 -28.218395 85.597984 -28.028038 85.41658 -0.06660305 -2.2271931
652843750 -0.059047911 -2.4271998 -28.203152 85.538116 -28.016283 85.361687 -0.066733181 -2.2323906
653062500 -0.059133403 -2.4351544 -28.192448 85.500893 -27.999071 85.283928 -0.06699717 -2.2373664
653281250 -0.058926083 -2.4380157 -28.181509 85.442429 -27.988245 85.217659 -0.067887135 -2.239269
653500000 -0.059612367 -2.4412966 -28.171665 85.402855 -27.976536 85.162178 -0.067899317 -2.2436409
653718750 -0.059848364 -2.4455473 -28.163183 85.372864 -27.975235 85.105026 -0.068308547 -2.2463932
653937500 -0.059959311 -2.4492006 -28.151125 85.378288 -27.967499 85.116768 -0.068197176 -2.2493131
654156250 -0.05962164 -2.4545991 -28.137421 85.364235 -27.95458 85.098343 -0.068347044 -2.2520308
654375000 -0.060147814 -2.4619412 -28.120314 85.323021 -27.939026 85.074654 -0.068430305 -2.2575047
654593750 -0.060314424 -2.4690318 -28.104118 85.286682 -27.916595 85.047546 -0.068373933 -2.2636955
654812500 -0.061023802 -2.474025 -28.086069 85.172508 -27.904402 84.993553 -0.06888888 -2.2691755
655031250 -0.061717317 -2.4796054 -28.066889 85.053345 -27.886942 84.90033 -0.070186146 -2.2747502
655250000 -0.062659934 -2.4836547 -28.059053 84.88958 -27.870249 84.703415 -0.071212791 -2.2787039
655468750 -0.063747905 -2.4835539 -28.059698 84.669327 -27.868734 84.478455 -0.072543249 -2.2790802
655687500 -0.064699776 -2.4771671 -28.083511 84.442535 -27.883755 84.223213 -0.07361947 -2.271817
655906250 -0.065491058 -2.4686687 -28.13002 84.423347 -27.936491 84.117172 -0.074466772 -2.2617648
656125000 -0.063943252 -2.4552703 -28.17885 84.631432 -27.993532 84.244652 -0.07275863 -2.2457352
656343750 -0.061884709 -2.4553394 -28.192242 84.951675 -28.021521 84.648483 -0.070497453 -2.2389929
656562500 -0.06067162 -2.4613149 -28.178982 85.265938 -28.006191 85.037178 -0.068291336 -2.243314
656781250 -0.05945871 -2.4715827 -28.142632 85.471352 -27.976559 85.276093 -0.066664048 -2.252568
657000000 -0.058146559 -2.4789894 -28.114618 85.596344 -27.938679 85.437759 -0.066048473 -2.2619207
657218750 -0.057645664 -2.4851952 -28.083899 85.662308 -27.904432 85.550056 -0.065459743 -2.2710302
657437500 -0.057607558 -2.4942997 -28.057873 85.682961 -27.870693 85.545563 -0.06558159 -2.2840703
657656250 -0.057473585 -2.5039048 -28.033815 85.747299 -27.840965 85.555984 -0.065154925 -2.2915089
657875000 -0.057435416 -2.5100482 -28.007471 85.720039 -27.813633 85.533043 -0.065458655 -2.2986572
658093750 -0.057792347 -2.5192771 -27.98184 85.713982 -27.792179 85.525734 -0.065891422 -2.3060279
658312500 -0.058254935 -2.5219586 -27.962381 85.696136 -27.773905 85.492668 -0.066162214 -2.3104997
658531250 -0.058144484 -2.5305941 -27.942673 85.692001 -27.753044 85.465157 -0.066066034 -2.3158891
658750000 -0.057810836 -2.5355368 -27.925732 85.682426 -27.738745 85.464554 -0.066049032 -2.319257
658968750 -0.058037341 -2.5435157 -27.905323 85.647079 -27.722216 85.450615 -0.065961979 -2.322633
659187500 -0.057967551 -2.5515423 -27.889053 85.630455 -27.705515 85.427193 -0.065674365 -2.3288987
659406250 -0.058125887 -2.5568271 -27.864502 85.653206 -27.691341 85.42981 -0.065836079 -2.3334031
659625000 -0.058229074 -2.5663056 -27.844177 85.611855 -27.670549 85.439674 -0.066013552 -2.3384757
659843750 -0.058141999 -2.5715141 -27.823652 85.562401 -27.654961 85.436028 -0.065537117 -2.3434925
660062500 -0.058672309 -2.5769167 -27.80455 85.58017 -27.634363 85.423721 -0.065309793 -2.3470604
660281250 -0.058918461 -2.5838838 -27.783655 85.510674 -27.613508 85.418594 -0.065453105 -2.3514662
660500000 -0.059322089 -2.591686 -27.762264 85.423508 -27.589621 85.387032 -0.065815493 -2.3579059
660718750 -0.060091957 -2.5937126 -27.743177 85.323372 -27.568939 85.335983 -0.065858327 -2.3640008
660937500 -0.060427263 -2.5995939 -27.726755 85.227921 -27.550919 85.290878 -0.066593058 -2.3701506
661156250 -0.061083913 -2.599957 -27.721254 85.113724 -27.52804 85.158882 -0.06722521 -2.3743386
661375000 -0.061801054 -2.6013203 -27.717825 85.023415 -27.518286 85.04995 -0.067832559 -2.3760798
661593750 -0.061954454 -2.6015558 -27.719553 84.983902 -27.518539 84.979462 -0.068329871 -2.3763907
661812500 -0.062572472 -2.6020875 -27.72052 84.959358 -27.52113 84.945282 -0.0681931 -2.3743041
662031250 -0.062528282 -2.6019092 -27.716463 84.983566 -27.512531 84.964378 -0.068121962 -2.3776438
662250000 -0.062576197 -2.6057117 -27.713427 84.972023 -27.504128 84.999451 -0.068073824 -2.375334
662468750 -0.062978193 -2.6021464 -27.705147 85.052826 -27.486357 85.013847 -0.067855708 -2.3792048
662687500 -0.062410533 -2.611558 -27.688795 85.06897 -27.476856 85.013916 -0.067664556 -2.3812799
662906250 -0.061981086 -2.6157615 -27.674829 85.059494 -27.458107 84.994286 -0.068123564 -2.3877378
663125000 -0.061565857 -2.6246781 -27.655783 85.052208 -27.434532 84.968636 -0.06769602 -2.3900232
663343750 -0.061585221 -2.6282737 -27.632065 85.029221 -27.417706 84.901558 -0.06809926 -2.397594
663562500 -0.062973 -2.6375883 -27.6108 84.937386 -27.397343 84.787651 -0.068657026 -2.4017067
663781250 -0.063328326 -2.6372418 -27.596663 84.758629 -27.391029 84.618874 -0.069851175 -2.4059563
664000000 -0.064744756 -2.6388912 -27.599325 84.565895 -27.395832 84.431107 -0.070981361 -2.3995936
664218750 -0.065148793 -2.6293242 -27.628033 84.473694 -27.435205 84.36161 -0.070895344 -2.3876102
664437500 -0.06463255 -2.6238203 -27.661654 84.56559 -27.461369 84.510498 -0.070172906 -2.3776679
664656250 -0.062957011 -2.623018 -27.671162 84.758675 -27.467535 84.778778 -0.068631776 -2.3732278
664875000 -0.061349094 -2.6278532 -27.658661 84.997284 -27.448763 84.983994 -0.066833198 -2.3802063
665093750 -0.060394913 -2.634913 -27.628923 85.163452 -27.422224 85.125099 -0.06616351 -2.3885252
665312500 -0.060323391 -2.6448467 -27.597094 85.184769 -27.386097 85.158684 -0.065640002 -2.397151
665531250 -0.060843945 -2.6511431 -27.570673 85.154686 -27.360134 85.135246 -0.065898821 -2.4025981
665750000 -0.061685964 -2.65172 -27.554434 85.085266 -27.341562 85.110466 -0.065999024 -2.406461
665968750 -0.061922953 -2.6540217 -27.548372 85.051834 -27.330599 85.072975 -0.066239782 -2.4060416
666187500 -0.06188117 -2.6591456 -27.5443 85.032455 -27.3197 85.083 -0.066176012 -2.4058068
666406250 -0.062727883 -2.6586242 -27.540451 85.088135 -27.306393 85.109901 -0.065750197 -2.4088008
666625000 -0.062125027 -2.6591332 -27.530052 85.125053 -27.292215 85.123779 -0.066112302 -2.4111316
666843750 -0.061686497 -2.6646965 -27.517706 85.144463 -27.279221 85.120659 -0.066233397 -2.4152248
667062500 -0.061861426 -2.6675711 -27.502466 85.196938 -27.259516 85.153008 -0.066186301 -2.4191568
667281250 -0.060428269 -2.6713228 -27.485937 85.239594 -27.244127 85.146332 -0.066581957 -2.4224374
667500000 -0.060814187 -2.6783657 -27.470469 85.256714 -27.22831 85.167221 -0.065912649 -2.42519
667718750 -0.061972871 -2.6779342 -27.456274 85.294136 -27.209229 85.162102 -0.065809958 -2.4272776
667937500 -0.061025497 -2.6785231 -27.440693 85.308563 -27.192978 85.174004 -0.065482408 -2.4299853
668156250 -0.060903177 -2.6861925 -27.42235 85.327492 -27.172831 85.163406 -0.065180406 -2.4328597
668375000 -0.06084295 -2.6881285 -27.405167 85.325516 -27.155046 85.162277 -0.065479651 -2.4379487
668593750 -0.059293482 -2.6976407 -27.385769 85.315971 -27.130323 85.159149 -0.065651268 -2.4428222
668812500 -0.060145222 -2.7017226 -27.368711 85.307426 -27.113365 85.14328 -0.065325938 -2.4458158
669031250 -0.060452811 -2.7037382 -27.351858 85.297279 -27.094347 85.100983 -0.065430783 -2.451066
669250000 -0.060628325 -2.7099802 -27.334692 85.267143 -27.068367 85.074577 -0.065810412 -2.4561234
669468750 -0.060988504 -2.717819 -27.320383 85.284309 -27.043232 85.004745 -0.066092417 -2.4616504
669687500 -0.060867079 -2.7231545 -27.305641 85.250031 -27.019663 84.923615 -0.066559933 -2.4671466
669906250 -0.062059246 -2.7236683 -27.284193 85.220863 -26.98654 84.758003 -0.067468278 -2.4724643
670125000 -0.063013613 -2.7251072 -27.270334 85.157928 -26.953659 84.4692 -0.069428824 -2.4760795
670343750 -0.062943205 -2.7301574 -27.257408 85.0364 -26.939554 83.834625 -0.073969349 -2.4767151
670562500 -0.063165016 -2.7309618 -27.258556 84.891579 -27.072277 83.012901 -0.078728996 -2.4354999
670781250 -0.063064553 -2.7215905 -27.279806 84.855919 -27.23954 83.865616 -0.072930299 -2.38903
671000000 -0.0632369 -2.7194088 -27.285151 84.900085 -27.210688 84.740715 -0.067707933 -2.3972089
671218750 -0.062791437 -2.7212384 -27.290316 85.009125 -27.152241 85.101273 -0.06520579 -2.4131141
671437500 -0.062032565 -2.7230246 -27.282623 85.178162 -27.109041 85.236176 -0.064265743 -2.4242554
671656250 -0.060955673 -2.728164 -27.259914 85.308548 -27.071651 85.290154 -0.063984983 -2.4329288
671875000 -0.061528023 -2.7336855 -27.232801 85.40654 -27.039026 85.333633 -0.063562982 -2.4363649
672093750 -0.060685966 -2.7384572 -27.211348 85.468536 -27.014166 85.328308 -0.063712068 -2.4409237
672312500 -0.060463011 -2.7450118 -27.184147 85.47361 -26.985783 85.32666 -0.06374529 -2.4494197
672531250 -0.060004748 -2.7512538 -27.163115 85.45591 -26.968939 85.31839 -0.064278059 -2.4530735
672750000 -0.059359759 -2.7556107 -27.144611 85.450546 -26.943943 85.30558 -0.064317964 -2.4558494
672968750 -0.058924325 -2.7669864 -27.121462 85.448967 -26.923956 85.299866 -0.064221494 -2.4593637
673187500 -0.059177164 -2.7677348 -27.10647 85.422249 -26.91016 85.288033 -0.064208746 -2.4615607
673406250 -0.060071386 -2.7680609 -27.092091 85.422707 -26.888163 85.284523 -0.064196959 -2.4632881
673625000 -0.060087487 -2.7698514 -27.073385 85.408249 -26.872232 85.259949 -0.064072616 -2.4635434
673843750 -0.06120928 -2.7716155 -27.062763 85.392357 -26.857534 85.229034 -0.063690588 -2.466969
674062500 -0.061043222 -2.7760305 -27.048925 85.34288 -26.841818 85.214844 -0.064548008 -2.4683712
674281250 -0.060794443 -2.7766418 -27.035713 85.312813 -26.830368 85.154488 -0.065166898 -2.4711325
674500000 -0.060728163 -2.7745101 -27.045269 85.245705 -26.841858 85.12397 -0.065892398 -2.4669373
674718750 -0.059258603 -2.7773273 -27.037359 85.480042 -26.82613 85.333687 -0.064283356 -2.4678075
674937500 -0.058856934 -2.7841086 -27.001495 85.498787 -26.797928 85.35508 -0.064516678 -2.4744358
675156250 -0.059167556 -2.7889733 -26.985384 85.464142 -26.779867 85.304741 -0.064216346 -2.4742994
675375000 -0.059956614 -2.7882035 -26.96908 85.446503 -26.762188 85.296417 -0.064460747 -2.4761205
675593750 -0.061311651 -2.7938514 -26.955568 85.477669 -26.750099 85.292572 -0.064053468 -2.4766891
675812500 -0.061150074 -2.7939599 -26.942131 85.472824 -26.736944 85.314888 -0.063548379 -2.4759378
676031250 -0.061221085 -2.7986803 -26.932493 85.480042 -26.726221 85.343475 -0.063660309 -2.4771788
676250000 -0.060354978 -2.7975028 -26.913973 85.477798 -26.707611 85.344719 -0.063542567 -2.4790518
676468750 -0.06125024 -2.8043904 -26.904301 85.516167 -26.695814 85.369072 -0.063605674 -2.4791405
676687500 -0.061107822 -2.8088038 -26.888203 85.539383 -26.68054 85.408989 -0.063501336 -2.4788916
676906250 -0.060987875 -2.8109636 -26.867702 85.547554 -26.664188 85.413528 -0.063594647 -2.48225
677125000 -0.060417932 -2.812077 -26.853952 85.552582 -26.648895 85.44442 -0.063038625 -2.4831376
677343750 -0.060670726 -2.8163986 -26.836935 85.573792 -26.63331 85.481598 -0.062848993 -2.4878416
677562500 -0.060372874 -2.8225946 -26.825417 85.604263 -26.616329 85.488098 -0.06251552 -2.4879911
677781250 -0.059266414 -2.820425 -26.805882 85.670761 -26.600349 85.555351 -0.062482722 -2.4920952
678000000 -0.058986396 -2.8292539 -26.784943 85.675713 -26.5755 85.636612 -0.063112445 -2.49704
678218750 -0.058412049 -2.8364587 -26.759048 85.70739 -26.546501 85.637733 -0.063109361 -2.5011351
678437500 -0.058443591 -2.8446841 -26.736361 85.699356 -26.521421 85.629128 -0.063408099 -2.5056796
678656250 -0.058508813 -2.850153 -26.714975 85.677338 -26.495619 85.596428 -0.063741855 -2.5128808
678875000 -0.059787739 -2.8529518 -26.694895 85.650528 -26.478508 85.539047 -0.063971311 -2.5126822
679093750 -0.059567746 -2.8594038 -26.672268 85.595833 -26.456865 85.51474 -0.063857973 -2.5159059
679312500 -0.060800079 -2.8673944 -26.650583 85.592636 -26.436407 85.479118 -0.063381031 -2.5190878
679531250 -0.061340138 -2.8693502 -26.629267 85.560966 -26.407764 85.462379 -0.063590035 -2.5232034
679750000 -0.061204996 -2.8778479 -26.606726 85.479546 -26.38352 85.375427 -0.064744085 -2.5286255
679968750 -0.061682548 -2.8811512 -26.582455 85.351128 -26.346739 85.27562 -0.066117473 -2.5363905
680187500 -0.064716093 -2.8893116 -26.57012 85.046707 -26.315329 84.903809 -0.068992287 -2.5426512
680406250 -0.066378579 -2.8699276 -26.611336 84.747299 -26.350729 84.188995 -0.074518308 -2.5258603
680625000 -0.063974634 -2.8506129 -26.665873 85.024719 -26.542244 84.593857 -0.070902646 -2.4677598
680843750 -0.061741173 -2.8515553 -26.652676 85.35894 -26.491396 85.474388 -0.064076222 -2.4786329
681062500 -0.06041893 -2.8623834 -26.623211 85.57399 -26.430368 85.63504 -0.062645935 -2.4971766
681281250 -0.060486432 -2.8662152 -26.590094 85.66024 -26.389473 85.68026 -0.061556354 -2.5065217
681500000 -0.060006544 -2.8767433 -26.562567 85.701714 -26.358517 85.707031 -0.062073272 -2.5111244
681718750 -0.059416052 -2.8831985 -26.54034 85.747574 -26.331785 85.717758 -0.06260372 -2.5154948
681937500 -0.059276663 -2.8895531 -26.514959 85.772278 -26.305109 85.719856 -0.063054606 -2.5203662
682156250 -0.059007466 -2.8956025 -26.490829 85.773865 -26.278498 85.702286 -0.063401587 -2.5227349
682375000 -0.059464052 -2.9014637 -26.464052 85.782623 -26.254538 85.707291 -0.064008392 -2.5278578
682593750 -0.059631482 -2.9109735 -26.441078 85.765182 -26.227568 85.693939 -0.063795887 -2.5316038
682812500 -0.060508065 -2.9123735 -26.41853 85.724068 -26.204943 85.6259 -0.063825615 -2.5375209
683031250 -0.061326638 -2.9176462 -26.400192 85.673599 -26.186272 85.575005 -0.063479669 -2.5399039
683250000 -0.061533518 -2.9184389 -26.38541 85.65921 -26.174025 85.56382 -0.063257903 -2.5399678
683468750 -0.06102562 -2.9197135 -26.372211 85.704285 -26.164045 85.567657 -0.063395537 -2.5400717
683687500 -0.06074968 -2.92818 -26.349693 85.721176 -26.141325 85.594002 -0.063863024 -2.5409639
683906250 -0.060686462 -2.9369249 -26.319201 85.694084 -26.114466 85.585213 -0.064406052 -2.543668
684125000 -0.062052198 -2.9361887 -26.304331 85.556267 -26.093193 85.440781 -0.065636978 -2.5478876
684343750 -0.062636249 -2.9335964 -26.313734 85.50444 -26.104052 85.389206 -0.065534152 -2.5393524
684562500 -0.061978694 -2.934226 -26.309757 85.619301 -26.0991 85.481514 -0.064919874 -2.5379913
684781250 -0.061247796 -2.9336848 -26.29244 85.70253 -26.081291 85.598999 -0.063588865 -2.5427606
685000000 -0.060805187 -2.9425967 -26.262886 85.727928 -26.058603 85.651062 -0.062631652 -2.552026
685218750 -0.061130542 -2.948204 -26.240679 85.755707 -26.033525 85.681053 -0.062381197 -2.5581849
685437500 -0.061140362 -2.9564962 -26.216307 85.771721 -26.006525 85.680176 -0.062702879 -2.5618608
685656250 -0.061183207 -2.9622877 -26.194906 85.780945 -25.98415 85.673683 -0.062390622 -2.565645
685875000 -0.060872961 -2.9674911 -26.171968 85.757599 -25.965506 85.651283 -0.062786192 -2.5700359
686093750 -0.061092865 -2.9721236 -26.148739 85.748604 -25.941587 85.662102 -0.062790915 -2.5707986
686312500 -0.061692625 -2.9752555 -26.128839 85.764694 -25.924871 85.662231 -0.062462479 -2.5779359
686531250 -0.061946683 -2.984678 -26.109154 85.760765 -25.901211 85.678772 -0.062661223 -2.5813179
686750000 -0.061867539 -2.9897981 -26.087061 85.72982 -25.884129 85.677368 -0.063540332 -2.5849028
686968750 -0.06202396 -2.9946358 -26.06362 85.719063 -25.857918 85.65435 -0.063654587 -2.5891061
687187500 -0.061626386 -3.0005186 -26.041014 85.712845 -25.837847 85.643311 -0.064253159 -2.5912747
687406250 -0.062428322 -3.0095837 -26.021643 85.659584 -25.812675 85.590324 -0.064483665 -2.5943549
687625000 -0.062391583 -3.014255 -25.999094 85.628502 -25.790863 85.549377 -0.065000318 -2.594696
687843750 -0.062744573 -3.0173943 -25.982147 85.610771 -25.770861 85.510406 -0.065484889 -2.5987964
688062500 -0.062862448 -3.020808 -25.965055 85.5839 -25.756437 85.492134 -0.065610945 -2.5992968
688281250 -0.062990837 -3.0248616 -25.945972 85.552177 -25.739462 85.447945 -0.066223867 -2.6068184
688500000 -0.063746616 -3.028368 -25.92868 85.538383 -25.721605 85.43689 -0.06658531 -2.610137
688718750 -0.063576996 -3.0354431 -25.906738 85.511406 -25.701405 85.422775 -0.066434257 -2.6182289
688937500 -0.063900277 -3.0414796 -25.887804 85.505661 -25.680855 85.418152 -0.066819996 -2.6210439
689156250 -0.063864633 -3.044606 -25.868538 85.478836 -25.660196 85.402397 -0.067151405 -2.6231091
689375000 -0.064313009 -3.050205 -25.843262 85.448578 -25.638514 85.351662 -0.067356303 -2.6265423
689593750 -0.064521708 -3.0539167 -25.819853 85.424408 -25.618637 85.316002 -0.067968629 -2.6296704
689812500 -0.065318823 -3.0598507 -25.796265 85.370453 -25.591105 85.235756 -0.068486869 -2.6340837
690031250 -0.065903887 -3.0684783 -25.775673 85.2397 -25.572357 85.141808 -0.06892655 -2.6409144
690250000 -0.067557044 -3.0722589 -25.761265 85.105469 -25.557676 85.015816 -0.070198901 -2.6438718
690468750 -0.068428718 -3.0699358 -25.755873 84.981827 -25.551889 84.876457 -0.071610637 -2.6438127
690687500 -0.069395088 -3.0704384 -25.758175 84.850471 -25.551966 84.79174 -0.072550721 -2.6453872
690906250 -0.070103861 -3.0659914 -25.76755 84.786133 -25.554672 84.71064 -0.073327966 -2.6364076
691125000 -0.069301724 -3.0561147 -25.786018 84.806534 -25.571548 84.686165 -0.073285736 -2.6280675
691343750 -0.068347991 -3.0530169 -25.796284 84.953728 -25.58609 84.820869 -0.072087131 -2.6186223
691562500 -0.066237897 -3.0551844 -25.788408 85.189377 -25.590006 85.025169 -0.070491247 -2.6199141
691781250 -0.064903438 -3.0636652 -25.765814 85.368271 -25.569719 85.227623 -0.069065891 -2.6212878
692000000 -0.06452436 -3.0723906 -25.732077 85.492043 -25.539616 85.393509 -0.06762936 -2.6303856
692218750 -0.064488411 -3.0805843 -25.701851 85.544579 -25.507669 85.480743 -0.067370988 -2.6397934
692437500 -0.063725188 -3.0899963 -25.673298 85.569351 -25.477556 85.506004 -0.06709446 -2.6522021
692656250 -0.063863613 -3.1005707 -25.643288 85.564445 -25.444389 85.526543 -0.067101508 -2.6604826
692875000 -0.063883029 -3.1060247 -25.617804 85.573341 -25.417572 85.543816 -0.067464814 -2.6676228
693093750 -0.063739322 -3.1163657 -25.593393 85.564934 -25.391909 85.545677 -0.067065835 -2.6721942
693312500 -0.064438023 -3.1244774 -25.570198 85.547447 -25.366825 85.532005 -0.067475438 -2.679477
