!Keysight Technologies,N5221A,MY56011522,A.10.47.06
!Date: Tuesday, September 29, 2020 16:00:30
!Correction: S11(Full 2 Port(1,2)) 
!S21(Full 2 Port(1,2)) 
!S12(Full 2 Port(1,2)) 
!S22(Full 2 Port(1,2)) 
!S2P File: Measurements: S11, S21, S12, S22:
# Hz S  dB   R 50
650000000 -0.054000586 -1.6413321 -32.093861 85.695534 -31.905079 85.478012 -0.066464849 -1.5306531
650021875 -0.053889863 -1.6434252 -32.086414 85.634102 -31.904253 85.480225 -0.066493988 -1.5283548
650043750 -0.054347012 -1.6441251 -32.085804 85.652344 -31.900749 85.445633 -0.065994866 -1.5295691
650065625 -0.054231334 -1.6437602 -32.083946 85.649094 -31.898806 85.473122 -0.066033199 -1.5288652
650087500 -0.054076623 -1.6438627 -32.081905 85.652763 -31.899197 85.438324 -0.065914534 -1.52956
650109375 -0.05430359 -1.6429644 -32.082073 85.622208 -31.899187 85.451942 -0.066298693 -1.5298009
650131250 -0.054299232 -1.643248 -32.079151 85.629036 -31.8988 85.424377 -0.066271029 -1.5299313
650153125 -0.05404995 -1.6466371 -32.082775 85.611053 -31.892389 85.430008 -0.065932758 -1.5290546
650175000 -0.05438862 -1.6443849 -32.07708 85.611053 -31.888292 85.445953 -0.065980054 -1.5303905
650196875 -0.054584354 -1.6457553 -32.079086 85.60569 -31.884861 85.392136 -0.066328526 -1.5327414
650218750 -0.054353189 -1.6459388 -32.075779 85.580292 -31.892271 85.394348 -0.065996163 -1.5320828
650240625 -0.054131079 -1.6446424 -32.071354 85.599846 -31.888853 85.392105 -0.065911934 -1.5345776
650262500 -0.054621544 -1.6418787 -32.071815 85.614197 -31.883337 85.383606 -0.066320799 -1.5318158
650284375 -0.054561701 -1.6465285 -32.067932 85.59375 -31.886244 85.369461 -0.066373914 -1.533775
650306250 -0.055119075 -1.6446878 -32.070412 85.577576 -31.881893 85.381706 -0.066617772 -1.5323261
650328125 -0.054225653 -1.6469795 -32.070614 85.590393 -31.885447 85.389915 -0.066140622 -1.5342928
650350000 -0.054308765 -1.6490744 -32.066437 85.557175 -31.883701 85.362816 -0.065992817 -1.5345792
650371875 -0.054473013 -1.6489385 -32.067505 85.566986 -31.881208 85.38166 -0.066067599 -1.5350533
650393750 -0.054536253 -1.6504501 -32.063423 85.550461 -31.882183 85.346466 -0.066388272 -1.5340934
650415625 -0.054767437 -1.6506214 -32.070457 85.514053 -31.881376 85.328331 -0.066285715 -1.5366009
650437500 -0.054432362 -1.6477429 -32.066219 85.531929 -31.875412 85.34697 -0.066543587 -1.5369711
650459375 -0.054729532 -1.649037 -32.065544 85.525047 -31.873524 85.346764 -0.066340134 -1.5354098
650481250 -0.054597002 -1.6507412 -32.060863 85.518372 -31.876146 85.31839 -0.066367514 -1.5368897
650503125 -0.054556828 -1.6497966 -32.060925 85.50161 -31.872232 85.311676 -0.066131435 -1.5356547
650525000 -0.054914188 -1.6506747 -32.062359 85.506393 -31.876612 85.334885 -0.066805169 -1.5364299
650546875 -0.054804932 -1.6503903 -32.064709 85.50737 -31.872406 85.328979 -0.066413753 -1.5366849
650568750 -0.054938316 -1.6524286 -32.057072 85.491112 -31.871681 85.284973 -0.066602327 -1.5376681
650590625 -0.054888222 -1.6508914 -32.055889 85.470711 -31.866617 85.299683 -0.066246994 -1.5385495
650612500 -0.054991558 -1.6518153 -32.058773 85.488136 -31.870804 85.269608 -0.066818595 -1.5381321
650634375 -0.054561511 -1.6517072 -32.061436 85.472839 -31.870419 85.285439 -0.066475555 -1.5388117
650656250 -0.054539431 -1.6528225 -32.058331 85.500519 -31.863926 85.300201 -0.066598602 -1.5408896
650678125 -0.054975137 -1.6525905 -32.0602 85.464836 -31.867311 85.246376 -0.066708982 -1.5394174
650700000 -0.054775268 -1.6524079 -32.059074 85.461906 -31.865849 85.249756 -0.066832885 -1.5385962
650721875 -0.055083741 -1.6514742 -32.059429 85.465851 -31.859428 85.274155 -0.066675596 -1.5394131
650743750 -0.055189677 -1.6526381 -32.060612 85.451057 -31.856987 85.215218 -0.066767931 -1.5407038
650765625 -0.055314217 -1.6546704 -32.055103 85.459824 -31.862503 85.240265 -0.067104861 -1.5380691
650787500 -0.054412648 -1.6536868 -32.056301 85.449318 -31.860771 85.236847 -0.066852644 -1.5387423
650809375 -0.054853801 -1.6555424 -32.052551 85.448555 -31.861374 85.221947 -0.066815324 -1.5407292
650831250 -0.054739732 -1.656001 -32.052052 85.425789 -31.860525 85.222092 -0.066892967 -1.5401191
650853125 -0.055174585 -1.6525134 -32.051476 85.440948 -31.860729 85.211243 -0.066509731 -1.53862
650875000 -0.054972742 -1.6580155 -32.053673 85.447945 -31.854086 85.206093 -0.066642202 -1.5396681
650896875 -0.05502867 -1.6570288 -32.050743 85.453651 -31.854601 85.222214 -0.066570178 -1.5409492
650918750 -0.054909579 -1.6569678 -32.048763 85.41259 -31.854372 85.207947 -0.066710442 -1.5404669
650940625 -0.054948047 -1.6606712 -32.051426 85.399048 -31.851748 85.177727 -0.06654691 -1.5435814
650962500 -0.054830913 -1.6549376 -32.05217 85.387115 -31.85014 85.180687 -0.066500269 -1.5440103
650984375 -0.055448186 -1.657048 -32.05159 85.411606 -31.85182 85.206871 -0.066949517 -1.544037
651006250 -0.055105519 -1.6603014 -32.048279 85.39476 -31.848734 85.149559 -0.066988647 -1.5431471
651028125 -0.055002339 -1.6585158 -32.050415 85.350151 -31.855032 85.167152 -0.066969059 -1.5412967
651050000 -0.055346746 -1.6597327 -32.046986 85.429909 -31.857208 85.168686 -0.06656836 -1.5433124
651071875 -0.055686664 -1.6599572 -32.056534 85.41333 -31.850933 85.153839 -0.066796146 -1.5447868
651093750 -0.05503916 -1.6598641 -32.052582 85.416695 -31.854893 85.142578 -0.066820368 -1.545627
651115625 -0.05474053 -1.6564134 -32.052559 85.412773 -31.848446 85.163177 -0.066717312 -1.545814
651137500 -0.055165574 -1.6582576 -32.049816 85.388023 -31.854893 85.181557 -0.066934481 -1.5431194
651159375 -0.055108272 -1.6574185 -32.050083 85.45034 -31.851131 85.184135 -0.06712234 -1.5446603
651181250 -0.055114541 -1.6568213 -32.043629 85.400673 -31.854616 85.183784 -0.066835329 -1.545032
651203125 -0.054997396 -1.6628426 -32.050991 85.395004 -31.851173 85.192299 -0.067003854 -1.5447901
651225000 -0.054845419 -1.6618445 -32.045567 85.433807 -31.851097 85.144104 -0.067566358 -1.5441862
651246875 -0.05528795 -1.6617252 -32.046818 85.412727 -31.847363 85.164177 -0.067551501 -1.5459056
651268750 -0.054677643 -1.6621882 -32.040955 85.416069 -31.852398 85.166451 -0.067318991 -1.5483871
651290625 -0.055046726 -1.6613444 -32.042824 85.422989 -31.852077 85.160339 -0.067368589 -1.5451964
651312500 -0.054646727 -1.6612768 -32.049274 85.431297 -31.849266 85.152 -0.067108624 -1.5481393
651334375 -0.054807037 -1.6633419 -32.041618 85.440689 -31.851927 85.178429 -0.067649275 -1.5466294
651356250 -0.055132233 -1.6638265 -32.038578 85.408279 -31.848274 85.152428 -0.067138933 -1.5486383
651378125 -0.054930147 -1.6653303 -32.034805 85.433998 -31.845072 85.145935 -0.067016855 -1.5477346
651400000 -0.054757655 -1.6641401 -32.040756 85.451508 -31.840574 85.150375 -0.067293689 -1.5469191
651421875 -0.054985676 -1.6625448 -32.040905 85.434601 -31.843168 85.149178 -0.06718912 -1.5459434
651443750 -0.054496974 -1.6640394 -32.036095 85.476746 -31.846819 85.15519 -0.067232586 -1.5474368
651465625 -0.054699246 -1.6616608 -32.035854 85.456161 -31.839655 85.154732 -0.067147203 -1.5468749
651487500 -0.054785941 -1.6586552 -32.033077 85.451271 -31.841999 85.167305 -0.067121521 -1.5466458
651509375 -0.054887298 -1.6595497 -32.035507 85.493011 -31.84095 85.184006 -0.067411914 -1.5471087
651531250 -0.055138446 -1.6613487 -32.033028 85.458725 -31.836182 85.159966 -0.067023978 -1.5470152
651553125 -0.054734062 -1.6631063 -32.02779 85.440971 -31.839006 85.145157 -0.066969328 -1.5473597
651575000 -0.054924306 -1.6658275 -32.03199 85.478928 -31.836617 85.142677 -0.067335054 -1.5473953
651596875 -0.054812826 -1.6656958 -32.031845 85.46212 -31.840759 85.192947 -0.066692516 -1.547026
651618750 -0.05443396 -1.6637908 -32.030861 85.512177 -31.83629 85.161049 -0.066744529 -1.5479623
651640625 -0.05431791 -1.662094 -32.023396 85.479507 -31.84112 85.174141 -0.066879161 -1.5465647
651662500 -0.054534987 -1.6647573 -32.026123 85.507446 -31.830929 85.162727 -0.066451721 -1.5469482
651684375 -0.054160114 -1.6644336 -32.025806 85.452354 -31.833588 85.179924 -0.06649559 -1.5480889
651706250 -0.054606844 -1.6699702 -32.020336 85.499023 -31.835915 85.214172 -0.066580646 -1.5496194
651728125 -0.054756165 -1.6644784 -32.01997 85.490471 -31.827784 85.167747 -0.066947088 -1.5498575
651750000 -0.054654352 -1.6673555 -32.019894 85.519348 -31.832777 85.183517 -0.066564165 -1.5512198
651771875 -0.054609817 -1.6676445 -32.017826 85.514656 -31.828381 85.167259 -0.066216305 -1.5514166
651793750 -0.053736072 -1.6667562 -32.006359 85.503548 -31.826017 85.172585 -0.066620797 -1.5522984
651815625 -0.054062419 -1.6692128 -32.012005 85.518311 -31.821913 85.167816 -0.066269845 -1.5529926
651837500 -0.05443532 -1.6693912 -32.011494 85.508263 -31.826859 85.20742 -0.066388011 -1.5525577
651859375 -0.054276064 -1.6695752 -32.011509 85.501808 -31.820303 85.199013 -0.066184886 -1.5515692
651881250 -0.054134861 -1.6695669 -32.001926 85.5243 -31.820452 85.203926 -0.066439204 -1.5540698
651903125 -0.054241281 -1.6689545 -32.000179 85.537422 -31.813097 85.196014 -0.06660337 -1.5533643
651925000 -0.054085448 -1.6688366 -31.9972 85.545166 -31.820911 85.194504 -0.066115536 -1.5543491
651946875 -0.053739477 -1.6716474 -31.993893 85.525932 -31.81654 85.211807 -0.066150434 -1.5562657
651968750 -0.054184254 -1.6704192 -31.999434 85.52726 -31.813135 85.23645 -0.066187814 -1.5541576
651990625 -0.053970311 -1.6701248 -31.993929 85.544884 -31.811678 85.204552 -0.066074006 -1.5565764
652012500 -0.054581739 -1.6756403 -31.992649 85.528023 -31.81139 85.224594 -0.066047519 -1.5569251
652034375 -0.054392096 -1.6748009 -31.990257 85.565842 -31.804502 85.168999 -0.066034295 -1.5557023
652056250 -0.054637734 -1.6747663 -31.986742 85.549553 -31.806421 85.207642 -0.065992497 -1.5567271
652078125 -0.054267053 -1.6739676 -31.979776 85.541252 -31.802258 85.199928 -0.065682165 -1.5588382
652100000 -0.05404143 -1.6763079 -31.984695 85.565262 -31.801653 85.207314 -0.065666527 -1.5599719
652121875 -0.053969596 -1.6772281 -31.983433 85.563133 -31.801369 85.209541 -0.065791965 -1.5603033
652143750 -0.054195989 -1.6764779 -31.975254 85.518684 -31.794445 85.220718 -0.065611191 -1.5589653
652165625 -0.054490227 -1.6793478 -31.973347 85.534393 -31.791948 85.21505 -0.065487862 -1.5607775
652187500 -0.054601315 -1.6771021 -31.965519 85.502754 -31.788994 85.210434 -0.065936275 -1.5608686
652209375 -0.054139193 -1.6801119 -31.970083 85.511986 -31.788483 85.203758 -0.065942034 -1.5608639
652231250 -0.054315075 -1.6764203 -31.968479 85.502655 -31.78566 85.235481 -0.065496787 -1.5596271
652253125 -0.054097638 -1.6803154 -31.961657 85.512947 -31.780521 85.202583 -0.065661669 -1.5612748
652275000 -0.054095224 -1.682146 -31.956512 85.511414 -31.781195 85.194069 -0.065566555 -1.5637058
652296875 -0.054760717 -1.6830996 -31.956873 85.506111 -31.782471 85.183792 -0.065741643 -1.5646484
652318750 -0.054004818 -1.6829025 -31.953827 85.49662 -31.77817 85.207024 -0.06588544 -1.564706
652340625 -0.054420643 -1.6842076 -31.949142 85.482483 -31.77652 85.193825 -0.065912142 -1.5625397
652362500 -0.054716624 -1.6860921 -31.943537 85.47863 -31.774681 85.17746 -0.065650411 -1.5655091
652384375 -0.054360904 -1.6825255 -31.950218 85.469208 -31.770853 85.177689 -0.066157043 -1.5661597
652406250 -0.054521579 -1.6843643 -31.943449 85.460602 -31.769552 85.166885 -0.065715037 -1.5657805
652428125 -0.054305125 -1.6852179 -31.936556 85.424438 -31.766354 85.150726 -0.065987006 -1.5684035
652450000 -0.054820783 -1.6844754 -31.931063 85.434219 -31.765123 85.146126 -0.066510275 -1.5675642
652471875 -0.054986633 -1.6878401 -31.932318 85.420708 -31.757627 85.157722 -0.066349164 -1.5680306
652493750 -0.054373667 -1.6867939 -31.93124 85.404213 -31.759741 85.137718 -0.066261627 -1.5696323
652515625 -0.054344464 -1.6867974 -31.926619 85.406754 -31.7542 85.128197 -0.066337891 -1.570244
652537500 -0.05451287 -1.6907487 -31.928661 85.406349 -31.756023 85.112877 -0.066146433 -1.5695986
652559375 -0.054665718 -1.6915345 -31.922863 85.408112 -31.751518 85.126602 -0.066182114 -1.5724378
652581250 -0.05439679 -1.6919962 -31.919762 85.361633 -31.748594 85.110176 -0.066461511 -1.5710123
652603125 -0.054837789 -1.6914027 -31.920216 85.363091 -31.747072 85.067169 -0.066060282 -1.5747504
652625000 -0.054982409 -1.6898341 -31.916639 85.344543 -31.743254 85.061821 -0.066855736 -1.5720978
652646875 -0.054983668 -1.6928141 -31.911705 85.315895 -31.742897 85.026047 -0.066442065 -1.5741811
652668750 -0.054789249 -1.6923481 -31.91007 85.321381 -31.742825 85.055397 -0.066691972 -1.5728219
652690625 -0.055393241 -1.6933069 -31.910044 85.287422 -31.741098 85.051163 -0.066660397 -1.5743883
652712500 -0.055517804 -1.6938933 -31.903566 85.275032 -31.740788 85.038506 -0.066739596 -1.5755465
652734375 -0.055338666 -1.695249 -31.906149 85.258827 -31.736853 84.992363 -0.066581525 -1.5749036
652756250 -0.055028077 -1.694535 -31.903275 85.287224 -31.738079 84.982407 -0.066924736 -1.5758296
652778125 -0.055343539 -1.6949759 -31.898302 85.219826 -31.732786 84.955559 -0.066968083 -1.5779505
652800000 -0.055404864 -1.6969906 -31.900307 85.199898 -31.731556 84.957565 -0.067046873 -1.575704
652821875 -0.054780032 -1.6989319 -31.897802 85.159744 -31.72505 84.933647 -0.066694543 -1.5760868
652843750 -0.055609364 -1.693934 -31.897665 85.186058 -31.727066 84.899345 -0.06680885 -1.5758359
652865625 -0.055399861 -1.6992636 -31.895512 85.114555 -31.721506 84.904831 -0.067224711 -1.5772377
652887500 -0.055263359 -1.6958838 -31.892424 85.151535 -31.729975 84.869553 -0.067257874 -1.5769215
652909375 -0.056185663 -1.694803 -31.887274 85.110985 -31.723043 84.853874 -0.067682274 -1.5792838
652931250 -0.055889085 -1.6986245 -31.891804 85.077888 -31.725676 84.859779 -0.067665279 -1.578729
652953125 -0.056087837 -1.7006797 -31.892344 85.059799 -31.728207 84.82547 -0.067499429 -1.5779464
652975000 -0.05647999 -1.698566 -31.893991 85.011604 -31.729448 84.781578 -0.067299277 -1.5780058
652996875 -0.05571596 -1.6994491 -31.890059 84.982384 -31.725494 84.786598 -0.067898095 -1.5799749
653018750 -0.055700675 -1.7000661 -31.892435 84.994347 -31.728802 84.751358 -0.067920953 -1.580624
653040625 -0.056251705 -1.6992499 -31.890198 84.930367 -31.725273 84.75827 -0.068019532 -1.5801438
653062500 -0.056365911 -1.6999367 -31.899622 84.977554 -31.72434 84.740265 -0.067764975 -1.5809753
653084375 -0.056138664 -1.7010854 -31.894571 84.892937 -31.72541 84.692719 -0.068141073 -1.582283
653106250 -0.056570966 -1.700478 -31.888069 84.861572 -31.726252 84.669044 -0.068434395 -1.5800489
653128125 -0.056304544 -1.6987445 -31.893543 84.859802 -31.732063 84.671768 -0.068332158 -1.5784072
653150000 -0.056387413 -1.703034 -31.894714 84.852356 -31.725561 84.622673 -0.068127923 -1.5805619
653171875 -0.056711834 -1.6979032 -31.897064 84.816032 -31.733429 84.63063 -0.068486959 -1.5802125
653193750 -0.056597807 -1.7003053 -31.900894 84.753716 -31.730507 84.629707 -0.068249024 -1.5801876
653215625 -0.057074659 -1.702893 -31.899469 84.755737 -31.726288 84.590164 -0.068276495 -1.5786099
653237500 -0.056723088 -1.6987629 -31.902445 84.753426 -31.734709 84.562508 -0.06877844 -1.5785431
653259375 -0.056412034 -1.6970987 -31.901773 84.732033 -31.734873 84.591446 -0.068582535 -1.578452
653281250 -0.057214729 -1.7001537 -31.901203 84.69651 -31.740559 84.546661 -0.068617769 -1.5785161
653303125 -0.057467468 -1.6957732 -31.912359 84.67218 -31.740761 84.549255 -0.069151781 -1.5787725
653325000 -0.057164051 -1.6992495 -31.908884 84.676117 -31.742781 84.513962 -0.069125623 -1.5810336
653346875 -0.057021808 -1.695865 -31.918535 84.693474 -31.741909 84.538376 -0.068573505 -1.57824
653368750 -0.057345826 -1.699291 -31.925341 84.644722 -31.75038 84.535118 -0.068685122 -1.5782633
653390625 -0.056902755 -1.6950922 -31.923658 84.636612 -31.750378 84.504807 -0.068788901 -1.5774119
653412500 -0.057143729 -1.6939062 -31.930822 84.64666 -31.755219 84.520691 -0.069082193 -1.5766841
653434375 -0.057490077 -1.6978209 -31.92761 84.58255 -31.75675 84.513916 -0.069074675 -1.5762339
653456250 -0.057009611 -1.696143 -31.930639 84.619041 -31.760021 84.481071 -0.068950087 -1.575565
653478125 -0.057302587 -1.6956853 -31.937712 84.612473 -31.766998 84.521118 -0.068841435 -1.5753309
653500000 -0.05732201 -1.6947256 -31.941704 84.610413 -31.767479 84.498863 -0.069207467 -1.5753125
653521875 -0.057045169 -1.694376 -31.944105 84.591606 -31.765596 84.516273 -0.068594716 -1.5742809
653543750 -0.056929562 -1.6910878 -31.949142 84.627945 -31.766773 84.515038 -0.068620235 -1.5764246
653565625 -0.056818362 -1.6944965 -31.950224 84.670242 -31.770296 84.509399 -0.068562448 -1.5738821
653587500 -0.057190463 -1.6946459 -31.952765 84.613464 -31.775242 84.544479 -0.068725422 -1.576237
653609375 -0.057240769 -1.6934261 -31.957951 84.637802 -31.77718 84.51358 -0.068606637 -1.5738002
653631250 -0.057506654 -1.6916844 -31.96714 84.687393 -31.777817 84.565437 -0.068214737 -1.5712603
653653125 -0.057539728 -1.692914 -31.963047 84.668709 -31.784323 84.517166 -0.068193771 -1.5741657
653675000 -0.057225566 -1.6904173 -31.967508 84.693474 -31.77956 84.550018 -0.068223581 -1.5745286
653696875 -0.056682937 -1.6914439 -31.964081 84.682846 -31.785089 84.57444 -0.06783288 -1.5712043
653718750 -0.056662176 -1.6911908 -31.965332 84.70208 -31.790956 84.571381 -0.068126731 -1.5724646
653740625 -0.056726933 -1.6894172 -31.974281 84.722107 -31.786428 84.605171 -0.068151392 -1.5725588
653762500 -0.056601528 -1.6894808 -31.974066 84.729576 -31.790579 84.635353 -0.068156131 -1.5724248
653784375 -0.05641045 -1.6881425 -31.974993 84.719566 -31.794231 84.629791 -0.067731947 -1.5727558
653806250 -0.056276422 -1.6920002 -31.978531 84.724266 -31.790365 84.660583 -0.06775742 -1.5730309
653828125 -0.056933016 -1.6912483 -31.978834 84.789261 -31.79505 84.652107 -0.067986801 -1.5728488
653850000 -0.056127984 -1.6899899 -31.979841 84.824364 -31.791016 84.683334 -0.067576982 -1.5751224
653871875 -0.056246128 -1.6885172 -31.97608 84.835655 -31.798584 84.690742 -0.067502901 -1.5704746
653893750 -0.055836093 -1.6899823 -31.977171 84.84156 -31.795729 84.705833 -0.067822352 -1.5721036
653915625 -0.056332361 -1.6912658 -31.980104 84.857597 -31.793154 84.708771 -0.06760028 -1.5737902
653937500 -0.05616444 -1.6933744 -31.978655 84.882446 -31.794352 84.787514 -0.067450769 -1.5708344
653959375 -0.056051131 -1.6898062 -31.983477 84.887619 -31.792988 84.75502 -0.067700423 -1.5738083
653981250 -0.056046456 -1.6900352 -31.984011 84.918877 -31.794786 84.766258 -0.067355245 -1.5718408
654003125 -0.055903696 -1.6917663 -31.980595 84.922203 -31.79038 84.813316 -0.067382447 -1.5750848
654025000 -0.055664308 -1.6921417 -31.984001 84.981133 -31.792742 84.822838 -0.0670515 -1.5739681
654046875 -0.05606389 -1.6931279 -31.979155 84.981644 -31.790949 84.830353 -0.06727019 -1.5747185
654068750 -0.056045745 -1.6892619 -31.979717 85.00412 -31.792639 84.844208 -0.067084417 -1.5743346
654090625 -0.05550307 -1.6931096 -31.980289 85.002495 -31.791735 84.852341 -0.067028232 -1.5732883
654112500 -0.055314273 -1.6932491 -31.975983 85.04026 -31.786854 84.881241 -0.066972539 -1.5750058
654134375 -0.055504788 -1.6929594 -31.977242 85.030296 -31.790564 84.917313 -0.067184873 -1.5742757
654156250 -0.055973992 -1.6916676 -31.978479 85.064384 -31.788439 84.888519 -0.067014344 -1.5757442
654178125 -0.055588208 -1.6930718 -31.970985 85.074684 -31.785507 84.91497 -0.066427343 -1.5754596
654200000 -0.054702658 -1.6945735 -31.971817 85.072334 -31.786951 84.951935 -0.06667088 -1.5750039
654221875 -0.05524426 -1.6924714 -31.974388 85.105865 -31.7843 84.914024 -0.06678798 -1.575583
654243750 -0.055306468 -1.6946406 -31.970564 85.10743 -31.782326 84.949982 -0.066423416 -1.5771502
654265625 -0.055239778 -1.6913764 -31.96929 85.144951 -31.782633 84.980484 -0.06636522 -1.5770887
654287500 -0.055103544 -1.6942109 -31.964775 85.14962 -31.781168 84.989464 -0.066467002 -1.5784613
654309375 -0.055415489 -1.69625 -31.969776 85.17099 -31.775881 85.011398 -0.066223055 -1.5778896
654331250 -0.055087917 -1.6985043 -31.965351 85.173256 -31.771816 84.991249 -0.06611608 -1.5776386
