!Keysight Technologies,N5221A,MY56011522,A.10.47.06
!Date: Tuesday, September 29, 2020 15:48:56
!Correction: S11(Full 2 Port(1,2)) 
!S21(Full 2 Port(1,2)) 
!S12(Full 2 Port(1,2)) 
!S22(Full 2 Port(1,2)) 
!S2P File: Measurements: S11, S21, S12, S22:
# Hz S  dB   R 50
650000000 -0.046604581 -1.6071025 -31.9639 86.429924 -31.778811 86.108284 -0.061134536 -1.5588193
650021875 -0.046277136 -1.6083083 -31.963057 86.408127 -31.778906 86.121124 -0.060876146 -1.560514
650043750 -0.046909999 -1.6098506 -31.957926 86.442207 -31.768057 86.129982 -0.06140469 -1.5603405
650065625 -0.04616145 -1.6097971 -31.952974 86.427498 -31.762787 86.11969 -0.060949221 -1.5626454
650087500 -0.046278406 -1.6110659 -31.950346 86.429016 -31.767532 86.090668 -0.06121077 -1.5625868
650109375 -0.04605018 -1.6140332 -31.948833 86.406883 -31.764223 86.127792 -0.060991876 -1.5621682
650131250 -0.046501134 -1.6110969 -31.937922 86.418167 -31.764112 86.12619 -0.061560761 -1.5624584
650153125 -0.046595402 -1.6131669 -31.940981 86.400749 -31.759726 86.106911 -0.06142078 -1.5647742
650175000 -0.046669383 -1.6143765 -31.935751 86.406395 -31.751844 86.070724 -0.060999736 -1.5660657
650196875 -0.046339676 -1.613547 -31.939051 86.435707 -31.749308 86.130157 -0.061148617 -1.565128
650218750 -0.047117524 -1.6167384 -31.932354 86.385139 -31.745428 86.086853 -0.061277587 -1.5654719
650240625 -0.046709418 -1.6187719 -31.92696 86.405426 -31.739071 86.122429 -0.061007094 -1.5664293
650262500 -0.046656832 -1.615851 -31.927458 86.368347 -31.743717 86.079323 -0.061081935 -1.5663673
650284375 -0.046691395 -1.6162921 -31.9219 86.394432 -31.735641 86.09716 -0.060896125 -1.5677828
650306250 -0.04677368 -1.6166549 -31.921684 86.38549 -31.731047 86.034645 -0.061351866 -1.5691923
650328125 -0.046693269 -1.6187739 -31.923214 86.353241 -31.733919 86.051147 -0.061448533 -1.5685221
650350000 -0.046950411 -1.6207395 -31.911615 86.377701 -31.728807 86.050606 -0.061175179 -1.5679046
650371875 -0.046834502 -1.6220249 -31.911358 86.337807 -31.727682 86.062637 -0.061163079 -1.5698136
650393750 -0.047267061 -1.6207306 -31.910927 86.329124 -31.721638 86.031929 -0.061234143 -1.5707865
650415625 -0.047177568 -1.6224122 -31.906868 86.347908 -31.721203 86.005699 -0.06115118 -1.5717977
650437500 -0.047254819 -1.6233398 -31.903461 86.310432 -31.714935 86.040855 -0.061353326 -1.5732313
650459375 -0.047321729 -1.6218256 -31.901039 86.297256 -31.712992 86.002953 -0.061157655 -1.572624
650481250 -0.047272846 -1.6243557 -31.896074 86.278267 -31.710667 86.0019 -0.061272971 -1.5749912
650503125 -0.047040086 -1.6258051 -31.893066 86.334587 -31.705179 85.957703 -0.061172631 -1.573411
650525000 -0.047140162 -1.6269931 -31.891382 86.282806 -31.703697 85.972061 -0.060998794 -1.5750754
650546875 -0.047114387 -1.6253598 -31.889311 86.309441 -31.703653 85.940025 -0.061503056 -1.5756017
650568750 -0.046850845 -1.6259756 -31.8804 86.275864 -31.695705 85.957123 -0.061383005 -1.5759966
650590625 -0.04761821 -1.6278422 -31.882446 86.23188 -31.69643 85.953911 -0.0612306 -1.5761464
650612500 -0.047447983 -1.6307259 -31.879646 86.230782 -31.693516 85.917244 -0.061423283 -1.5777194
650634375 -0.047802493 -1.6289469 -31.880594 86.236778 -31.688574 85.891335 -0.061545696 -1.5795056
650656250 -0.047143787 -1.6291734 -31.873545 86.211151 -31.687195 85.901604 -0.061610851 -1.5775187
650678125 -0.047274478 -1.6285737 -31.873482 86.191666 -31.682516 85.897491 -0.061717659 -1.5786713
650700000 -0.047653805 -1.6323874 -31.872213 86.179558 -31.687384 85.861069 -0.061936971 -1.5804881
650721875 -0.047534708 -1.6327115 -31.866793 86.142151 -31.677633 85.848618 -0.062255666 -1.5821131
650743750 -0.047508359 -1.6329037 -31.863247 86.142776 -31.680141 85.855133 -0.062027209 -1.5836031
650765625 -0.047420584 -1.6358598 -31.85874 86.115646 -31.672974 85.815651 -0.061924409 -1.5811218
650787500 -0.047969818 -1.6344599 -31.857927 86.113625 -31.673525 85.788269 -0.062017228 -1.5821251
650809375 -0.047662571 -1.6334916 -31.857775 86.07869 -31.668789 85.760071 -0.062186014 -1.5821786
650831250 -0.047798522 -1.6337266 -31.853354 86.085114 -31.666487 85.777031 -0.062276956 -1.5823864
650853125 -0.048163693 -1.6326214 -31.851332 86.077332 -31.657873 85.744057 -0.062768668 -1.5838069
650875000 -0.04841882 -1.6367313 -31.851521 86.057747 -31.662373 85.711891 -0.062937282 -1.5856452
650896875 -0.048302788 -1.6381472 -31.848547 86.012314 -31.661182 85.699287 -0.062825263 -1.5841196
650918750 -0.048204336 -1.6345444 -31.845203 85.983788 -31.659664 85.683929 -0.062681235 -1.5852498
650940625 -0.048566047 -1.6372509 -31.843212 85.944458 -31.656712 85.660812 -0.06282071 -1.5847076
650962500 -0.048722718 -1.635952 -31.841892 85.940491 -31.6551 85.626694 -0.062828265 -1.587009
650984375 -0.048239097 -1.6390232 -31.841385 85.887337 -31.649151 85.583076 -0.062956929 -1.5848172
651006250 -0.048745744 -1.6376101 -31.836124 85.915009 -31.652935 85.601578 -0.063088574 -1.5858932
651028125 -0.048879351 -1.6391091 -31.836706 85.853149 -31.647278 85.579216 -0.06334985 -1.5856677
651050000 -0.048799302 -1.638471 -31.835138 85.849487 -31.649984 85.522621 -0.063384689 -1.5876825
651071875 -0.049060725 -1.6441178 -31.836201 85.805008 -31.650463 85.518669 -0.063158751 -1.5855806
651093750 -0.049082123 -1.638833 -31.830555 85.802834 -31.651634 85.489555 -0.063428275 -1.5867467
651115625 -0.048884351 -1.6403573 -31.837563 85.73304 -31.650305 85.450623 -0.063639425 -1.588519
651137500 -0.049163241 -1.6427032 -31.837099 85.742516 -31.644924 85.425407 -0.064084493 -1.5864031
651159375 -0.049640603 -1.6416906 -31.836748 85.700455 -31.649397 85.39119 -0.063958034 -1.5883126
651181250 -0.04914318 -1.6404861 -31.837595 85.669533 -31.647364 85.363098 -0.064031281 -1.5886365
651203125 -0.049481016 -1.6404165 -31.835396 85.635925 -31.65077 85.346558 -0.064388089 -1.5891509
651225000 -0.04957163 -1.6381397 -31.8386 85.605179 -31.650108 85.317055 -0.064265169 -1.5888499
651246875 -0.049716014 -1.6393195 -31.836285 85.601959 -31.655312 85.304367 -0.064081438 -1.5899841
651268750 -0.049618889 -1.6393744 -31.840693 85.586433 -31.657108 85.263504 -0.064545691 -1.5900135
651290625 -0.049700927 -1.6394352 -31.845995 85.570267 -31.652769 85.235336 -0.064726971 -1.5884718
651312500 -0.049777921 -1.6392176 -31.839422 85.548302 -31.658726 85.243607 -0.064973548 -1.5892718
651334375 -0.050163634 -1.6384438 -31.848135 85.508125 -31.659073 85.231186 -0.0649314 -1.5877551
651356250 -0.049654622 -1.6419418 -31.848656 85.471878 -31.664482 85.223557 -0.064955071 -1.5877103
651378125 -0.050387047 -1.6401402 -31.84622 85.50161 -31.663324 85.162827 -0.065030791 -1.5879432
651400000 -0.050130535 -1.6382682 -31.858557 85.458382 -31.66787 85.191437 -0.065010205 -1.5896142
651421875 -0.050453681 -1.6396713 -31.859276 85.442017 -31.670204 85.134674 -0.064996555 -1.5883915
651443750 -0.050211955 -1.6361881 -31.857334 85.441284 -31.669643 85.126671 -0.065290846 -1.5878987
651465625 -0.050300207 -1.6361389 -31.859652 85.401627 -31.676596 85.129677 -0.065210648 -1.5877354
651487500 -0.050159074 -1.6363702 -31.863081 85.44709 -31.677103 85.118195 -0.065322377 -1.5846152
651509375 -0.050263431 -1.636932 -31.866264 85.393272 -31.678905 85.111176 -0.065383643 -1.5869261
651531250 -0.050105259 -1.6388111 -31.867113 85.433357 -31.680489 85.12207 -0.065058276 -1.5848782
651553125 -0.050212897 -1.6334425 -31.875629 85.392136 -31.687031 85.070816 -0.065419607 -1.5850716
651575000 -0.050193705 -1.6354705 -31.873869 85.400085 -31.689819 85.132225 -0.065155156 -1.5830522
651596875 -0.050553083 -1.6339216 -31.873932 85.418953 -31.697914 85.077888 -0.06514091 -1.5849565
651618750 -0.050564401 -1.6329908 -31.87751 85.410133 -31.692966 85.116188 -0.065019786 -1.5827316
651640625 -0.050764903 -1.6346933 -31.883209 85.410812 -31.695925 85.096336 -0.065189056 -1.5806895
651662500 -0.050205756 -1.63413 -31.880369 85.389786 -31.702026 85.099625 -0.065181106 -1.5798451
651684375 -0.050185151 -1.6321478 -31.891317 85.382729 -31.702923 85.059639 -0.064994186 -1.5812443
651706250 -0.049939651 -1.6313372 -31.891617 85.437126 -31.707008 85.14183 -0.064693831 -1.5811965
651728125 -0.049795695 -1.6341527 -31.896484 85.445076 -31.710623 85.125603 -0.064333066 -1.5797508
651750000 -0.050378993 -1.6322564 -31.899933 85.419266 -31.705856 85.13015 -0.064256035 -1.5812027
651771875 -0.049984839 -1.6341406 -31.898884 85.441475 -31.71365 85.157631 -0.064000927 -1.5791988
651793750 -0.049626868 -1.6324776 -31.900324 85.450676 -31.710974 85.16291 -0.064051256 -1.5788918
651815625 -0.049931575 -1.6346521 -31.900118 85.496895 -31.712576 85.188927 -0.064044081 -1.5801079
651837500 -0.049622629 -1.6311674 -31.898262 85.478294 -31.715576 85.18261 -0.064289555 -1.5799245
651859375 -0.049801759 -1.6319053 -31.902861 85.53418 -31.716785 85.195976 -0.063774124 -1.5810335
651881250 -0.049675599 -1.6326524 -31.907467 85.515602 -31.71677 85.200256 -0.064008132 -1.5799714
651903125 -0.049596641 -1.6358538 -31.898012 85.529327 -31.7176 85.195999 -0.063919887 -1.5812361
651925000 -0.049650773 -1.63237 -31.905342 85.548187 -31.719582 85.257561 -0.063961163 -1.5820934
651946875 -0.04937293 -1.6329012 -31.904751 85.55024 -31.720423 85.258987 -0.063895091 -1.5806774
651968750 -0.049188156 -1.6325077 -31.907053 85.588318 -31.719149 85.255493 -0.063758694 -1.5801083
651990625 -0.049710438 -1.6314608 -31.907822 85.597702 -31.718382 85.303642 -0.06335789 -1.581883
652012500 -0.049572859 -1.6315962 -31.904573 85.592148 -31.714401 85.285553 -0.063309915 -1.5822518
652034375 -0.048890918 -1.634515 -31.906456 85.598961 -31.720619 85.321175 -0.063342109 -1.5817879
652056250 -0.049129527 -1.6319723 -31.907288 85.622421 -31.719398 85.33387 -0.063094012 -1.5818572
652078125 -0.048920467 -1.6305691 -31.904663 85.64518 -31.71541 85.346985 -0.063361652 -1.5838481
652100000 -0.048680525 -1.6310132 -31.905605 85.680305 -31.719679 85.366959 -0.062885463 -1.5817035
652121875 -0.049101599 -1.6349385 -31.90703 85.687187 -31.719231 85.388268 -0.062782735 -1.5819417
652143750 -0.049167275 -1.6336031 -31.906446 85.686516 -31.71641 85.402534 -0.062930375 -1.5809439
652165625 -0.048939515 -1.630863 -31.903393 85.692184 -31.71636 85.38472 -0.063073665 -1.5811111
652187500 -0.048507962 -1.6332223 -31.90309 85.712601 -31.714664 85.42128 -0.062771171 -1.5842035
652209375 -0.048630066 -1.6356974 -31.903715 85.758072 -31.720448 85.438499 -0.062588453 -1.5836142
652231250 -0.048150498 -1.6332641 -31.899426 85.747368 -31.718473 85.427414 -0.062825777 -1.5841215
652253125 -0.048247796 -1.6340085 -31.903248 85.752853 -31.711498 85.420517 -0.062439065 -1.5836605
652275000 -0.048524078 -1.6372007 -31.899961 85.753784 -31.710585 85.465202 -0.062193856 -1.5860318
652296875 -0.048537273 -1.6387223 -31.895903 85.791138 -31.708799 85.472267 -0.062686294 -1.5872755
652318750 -0.048746407 -1.6350513 -31.899424 85.808556 -31.707066 85.475861 -0.062309805 -1.5837586
652340625 -0.048275083 -1.6402117 -31.895571 85.800011 -31.708363 85.504608 -0.062095795 -1.5859064
652362500 -0.048426181 -1.6373159 -31.896894 85.843071 -31.703821 85.517265 -0.062230706 -1.58707
652384375 -0.048570499 -1.6383867 -31.89472 85.812103 -31.705145 85.487427 -0.062250488 -1.5853404
652406250 -0.048588216 -1.6382641 -31.886951 85.830513 -31.705645 85.537971 -0.062493116 -1.5881826
652428125 -0.048196066 -1.6363339 -31.899971 85.867149 -31.703474 85.495872 -0.062067185 -1.5881225
652450000 -0.047957029 -1.6420939 -31.891432 85.852394 -31.707041 85.575836 -0.062173851 -1.587814
652471875 -0.048434973 -1.6417714 -31.89208 85.866875 -31.700188 85.553886 -0.062280934 -1.5857916
652493750 -0.0485912 -1.6405773 -31.888716 85.880882 -31.699232 85.57959 -0.062336486 -1.5905704
652515625 -0.04827974 -1.6422575 -31.887804 85.888916 -31.699055 85.578438 -0.061922222 -1.5904672
652537500 -0.048336226 -1.6412441 -31.889059 85.886986 -31.691374 85.58931 -0.06212372 -1.590432
652559375 -0.048503723 -1.6422505 -31.884819 85.901955 -31.691179 85.611992 -0.061838444 -1.5911617
652581250 -0.048299927 -1.6440824 -31.882927 85.877579 -31.695601 85.596153 -0.061664481 -1.5901101
652603125 -0.048435662 -1.6465207 -31.873299 85.940674 -31.68926 85.620819 -0.061794415 -1.5918317
652625000 -0.047965258 -1.6448709 -31.876987 85.920059 -31.684862 85.621605 -0.062367834 -1.5916741
652646875 -0.048237778 -1.645318 -31.876102 85.945122 -31.689444 85.636536 -0.062195025 -1.593441
652668750 -0.048003856 -1.6446183 -31.878716 85.94574 -31.685732 85.618263 -0.061960734 -1.5929646
652690625 -0.04772548 -1.6476697 -31.872843 85.934235 -31.687288 85.628067 -0.061717592 -1.5919901
652712500 -0.047809318 -1.6487463 -31.871927 85.946304 -31.681261 85.640106 -0.061607774 -1.593047
652734375 -0.047881857 -1.6497856 -31.868389 85.943771 -31.68169 85.630013 -0.062061943 -1.5929618
652756250 -0.047575258 -1.6482012 -31.868267 85.975052 -31.677021 85.641273 -0.061712835 -1.5947261
652778125 -0.047890306 -1.6490436 -31.870195 85.943466 -31.676144 85.666046 -0.061801936 -1.5964785
652800000 -0.047417223 -1.6469423 -31.861156 85.990776 -31.67742 85.680023 -0.061804876 -1.5954115
652821875 -0.047002748 -1.6513463 -31.866779 85.982399 -31.67025 85.672981 -0.061677624 -1.5981218
652843750 -0.047557525 -1.6498774 -31.861876 85.956169 -31.667856 85.656479 -0.061745659 -1.5964643
652865625 -0.047436908 -1.650666 -31.855225 85.98275 -31.673388 85.644485 -0.061769728 -1.5966938
652887500 -0.047181897 -1.6520591 -31.855677 85.970207 -31.667019 85.716782 -0.061701011 -1.5981423
652909375 -0.047907587 -1.6523596 -31.858065 86.012466 -31.666912 85.6744 -0.061734255 -1.5982987
652931250 -0.04731838 -1.6484716 -31.857946 86.012344 -31.66296 85.712364 -0.061718505 -1.5994319
652953125 -0.047531497 -1.6529734 -31.85569 86.012436 -31.663563 85.710129 -0.061611228 -1.5998832
652975000 -0.047487363 -1.6554413 -31.851919 85.986603 -31.660152 85.700523 -0.06195857 -1.6008815
652996875 -0.047188383 -1.6545042 -31.847271 86.04528 -31.662682 85.700211 -0.061741266 -1.6010778
653018750 -0.046968658 -1.6562799 -31.842712 85.992981 -31.654903 85.690109 -0.061478529 -1.5990713
653040625 -0.047635768 -1.6543752 -31.841919 86.009163 -31.653616 85.71978 -0.061673198 -1.6017541
653062500 -0.04701196 -1.6561425 -31.843822 86.028664 -31.65509 85.699135 -0.061565783 -1.6045736
653084375 -0.047167335 -1.6559806 -31.843014 86.028938 -31.656628 85.706696 -0.061650235 -1.6059352
653106250 -0.047294728 -1.6560236 -31.845238 86.013359 -31.649439 85.724464 -0.061470632 -1.6014286
653128125 -0.047007151 -1.6552198 -31.834841 86.040009 -31.653469 85.720474 -0.061695088 -1.6040949
653150000 -0.046619978 -1.659436 -31.838215 86.019218 -31.648565 85.705223 -0.061929069 -1.6045164
653171875 -0.046703663 -1.6574533 -31.834879 86.054108 -31.646778 85.759163 -0.061528221 -1.6056798
653193750 -0.047280066 -1.6590102 -31.836893 86.029266 -31.645607 85.781723 -0.061188824 -1.6047826
653215625 -0.047243148 -1.6589975 -31.834202 86.018829 -31.645969 85.737206 -0.0615515 -1.6078107
653237500 -0.047063135 -1.6596709 -31.830267 86.043434 -31.639948 85.719864 -0.061609246 -1.6071105
653259375 -0.047103789 -1.658121 -31.831585 86.065239 -31.639385 85.729393 -0.061691556 -1.6060312
653281250 -0.047126055 -1.6601659 -31.825001 86.016312 -31.640915 85.758652 -0.061748959 -1.6056567
653303125 -0.047146648 -1.6619961 -31.830091 86.039658 -31.635799 85.780441 -0.061480027 -1.6059736
653325000 -0.047456626 -1.6598359 -31.826832 86.083183 -31.635876 85.767303 -0.061741129 -1.6078664
653346875 -0.047494613 -1.6612647 -31.822838 86.042374 -31.634109 85.760384 -0.061472435 -1.6109432
653368750 -0.04720125 -1.6621326 -31.82514 86.058769 -31.628038 85.76403 -0.061698385 -1.6098199
653390625 -0.047043707 -1.6630235 -31.823645 86.069855 -31.62982 85.775986 -0.061799381 -1.6087638
653412500 -0.047282618 -1.6636411 -31.81604 86.054535 -31.630005 85.765823 -0.061029892 -1.6095293
653434375 -0.047341224 -1.6618025 -31.816267 86.018806 -31.623426 85.767998 -0.061269678 -1.611398
653456250 -0.047441646 -1.6631244 -31.81427 86.104378 -31.622267 85.741936 -0.061209045 -1.6115505
653478125 -0.047025748 -1.6640267 -31.811327 86.065659 -31.622698 85.789436 -0.061162714 -1.6104292
653500000 -0.046834365 -1.6636156 -31.810356 86.080154 -31.622932 85.801399 -0.06098913 -1.6111393
653521875 -0.046854567 -1.6657668 -31.808483 86.105576 -31.622896 85.779221 -0.061317533 -1.6117965
653543750 -0.047195587 -1.6636553 -31.80324 86.101875 -31.616457 85.777596 -0.061754245 -1.6132329
653565625 -0.0467471 -1.6660479 -31.806429 86.055389 -31.617397 85.758186 -0.061459534 -1.6134773
653587500 -0.047154639 -1.6657399 -31.806503 86.073135 -31.613888 85.756836 -0.06089288 -1.6120608
653609375 -0.047432337 -1.6658287 -31.799761 86.079437 -31.613283 85.779572 -0.061099086 -1.6143388
653631250 -0.047005285 -1.6648898 -31.7999 86.090706 -31.610966 85.792015 -0.061375007 -1.613973
653653125 -0.0469562 -1.6665735 -31.798384 86.09594 -31.612757 85.813759 -0.060931418 -1.6148841
653675000 -0.047133755 -1.6675227 -31.798689 86.074173 -31.609558 85.81144 -0.061227843 -1.6146009
653696875 -0.046825871 -1.6662518 -31.79545 86.124405 -31.607328 85.776154 -0.061206903 -1.6144961
653718750 -0.046744492 -1.6682912 -31.792974 86.071907 -31.606676 85.782524 -0.061066017 -1.6187773
653740625 -0.047082137 -1.6662388 -31.793072 86.09613 -31.605143 85.789925 -0.061342899 -1.6151389
653762500 -0.047426816 -1.6699107 -31.791132 86.099709 -31.597385 85.755119 -0.061078783 -1.6176224
653784375 -0.047164172 -1.6707751 -31.790939 86.119217 -31.605721 85.783699 -0.060713924 -1.6180542
653806250 -0.046917528 -1.6686105 -31.792963 86.115501 -31.599152 85.777351 -0.061020058 -1.6207379
653828125 -0.047158152 -1.6701345 -31.789551 86.08036 -31.592796 85.789505 -0.060949735 -1.6173079
653850000 -0.047303986 -1.6703658 -31.786152 86.101868 -31.597033 85.797012 -0.061396264 -1.6170524
653871875 -0.047073666 -1.6727521 -31.786558 86.087067 -31.591295 85.827133 -0.060768358 -1.6181308
653893750 -0.047108859 -1.6709185 -31.779806 86.143799 -31.588011 85.783356 -0.061164644 -1.6198612
653915625 -0.046908498 -1.6711252 -31.779905 86.07618 -31.585285 85.809242 -0.060854033 -1.6174895
653937500 -0.046795059 -1.6718123 -31.779486 86.107315 -31.583244 85.81427 -0.061169915 -1.6181438
653959375 -0.047520582 -1.6720246 -31.778803 86.097244 -31.586563 85.810097 -0.060956921 -1.6201351
653981250 -0.046955407 -1.6712334 -31.774061 86.120644 -31.582443 85.800301 -0.060947992 -1.6199068
654003125 -0.047158416 -1.6737226 -31.766689 86.111107 -31.585115 85.775902 -0.060757954 -1.6200721
654025000 -0.047339018 -1.6744512 -31.775074 86.114395 -31.580101 85.831863 -0.061135855 -1.6223162
654046875 -0.047320936 -1.6747712 -31.773071 86.148338 -31.579279 85.791969 -0.060458533 -1.6208128
654068750 -0.047210354 -1.6756343 -31.768694 86.113029 -31.579239 85.797241 -0.061014351 -1.6223109
654090625 -0.04717841 -1.6739115 -31.764807 86.099716 -31.581467 85.765205 -0.061310168 -1.623871
654112500 -0.047192391 -1.6749871 -31.763163 86.11721 -31.576584 85.793953 -0.061060909 -1.6216711
654134375 -0.046897613 -1.6758171 -31.766464 86.149284 -31.567825 85.826256 -0.060838502 -1.6229365
654156250 -0.047381151 -1.6778674 -31.757139 86.115547 -31.571671 85.80265 -0.060892008 -1.621285
654178125 -0.047364384 -1.6771866 -31.762484 86.117027 -31.572126 85.817307 -0.060544971 -1.6230325
654200000 -0.047711186 -1.6778995 -31.759581 86.118935 -31.567577 85.809784 -0.061059922 -1.6260267
654221875 -0.046562579 -1.6789117 -31.757099 86.125252 -31.563019 85.806152 -0.06082321 -1.6238245
654243750 -0.047202975 -1.6770626 -31.758017 86.092583 -31.568047 85.809875 -0.061065707 -1.6249248
654265625 -0.047375482 -1.6790262 -31.754433 86.109055 -31.567333 85.820366 -0.060786471 -1.6243633
654287500 -0.047001231 -1.682498 -31.749578 86.116791 -31.563442 85.853348 -0.060729977 -1.6252508
654309375 -0.047013983 -1.6802176 -31.754507 86.105721 -31.562716 85.825851 -0.061007328 -1.6247945
