!Keysight Technologies,N5221A,MY56011522,A.10.47.06
!Date: Tuesday, September 29, 2020 15:17:58
!Correction: S11(Full 2 Port(1,2)) 
!S21(Full 2 Port(1,2)) 
!S12(Full 2 Port(1,2)) 
!S22(Full 2 Port(1,2)) 
!S2P File: Measurements: S11, S21, S12, S22:
# Hz S  dB   R 50
650000000 -0.041132066 -0.79793084 -38.288177 85.383919 -38.106266 85.198021 -0.048596021 -0.61129129
650021875 -0.040541012 -0.79920781 -38.289394 85.477737 -38.103699 85.21199 -0.049005575 -0.61109847
650043750 -0.040698174 -0.79769987 -38.290279 85.409462 -38.099731 85.20282 -0.048910864 -0.61042333
650065625 -0.040514063 -0.79694319 -38.290134 85.403 -38.102936 85.227318 -0.048830435 -0.61443013
650087500 -0.040199429 -0.79740089 -38.280621 85.437225 -38.096272 85.139259 -0.048986863 -0.61429
650109375 -0.040694881 -0.79753566 -38.277058 85.35714 -38.091751 85.198288 -0.04858217 -0.61212736
650131250 -0.040844325 -0.79894513 -38.277069 85.416534 -38.091702 85.231476 -0.048613492 -0.61271894
650153125 -0.040772662 -0.80011433 -38.270481 85.438713 -38.073559 85.161156 -0.048618469 -0.61254007
650175000 -0.041014466 -0.79966789 -38.271366 85.388489 -38.076626 85.14843 -0.0488079 -0.61451942
650196875 -0.040553872 -0.80320156 -38.266113 85.361816 -38.082577 85.158005 -0.048925929 -0.61430073
650218750 -0.040958479 -0.80055851 -38.262878 85.377075 -38.070278 85.179489 -0.048575949 -0.61371714
650240625 -0.040895611 -0.80248302 -38.263409 85.410835 -38.072433 85.202126 -0.04843438 -0.61497009
650262500 -0.040719725 -0.80250949 -38.252846 85.400055 -38.064777 85.196747 -0.048388705 -0.61488217
650284375 -0.040879063 -0.80243671 -38.255657 85.330772 -38.058044 85.200279 -0.048277564 -0.61726755
650306250 -0.040218558 -0.80261511 -38.244049 85.365868 -38.064182 85.196854 -0.048887227 -0.61600477
650328125 -0.040256813 -0.8044399 -38.239498 85.379486 -38.055164 85.177635 -0.048592411 -0.61543977
650350000 -0.040739574 -0.80345184 -38.246475 85.429131 -38.051514 85.203766 -0.048661992 -0.61523485
650371875 -0.040898357 -0.80339438 -38.253254 85.35553 -38.048756 85.205498 -0.048712164 -0.6163981
650393750 -0.041109569 -0.80827326 -38.24432 85.364861 -38.039085 85.131348 -0.048915803 -0.61795527
650415625 -0.040973391 -0.80602497 -38.237202 85.349609 -38.037132 85.157082 -0.049002606 -0.61645442
650437500 -0.040532459 -0.806418 -38.229187 85.39566 -38.037399 85.178596 -0.048434533 -0.61679113
650459375 -0.040646482 -0.80734515 -38.23003 85.303055 -38.038284 85.16758 -0.048342865 -0.61681342
650481250 -0.041055251 -0.80837393 -38.222904 85.410637 -38.040607 85.181999 -0.048167851 -0.61750138
650503125 -0.040672462 -0.8085748 -38.214119 85.440109 -38.040237 85.178741 -0.048476242 -0.61771393
650525000 -0.040747296 -0.80909669 -38.210922 85.42878 -38.031048 85.121811 -0.048424706 -0.61770898
650546875 -0.040736761 -0.80988663 -38.213432 85.345856 -38.0289 85.182838 -0.048671808 -0.61783445
650568750 -0.040644739 -0.80937666 -38.208282 85.316895 -38.020878 85.142868 -0.048598621 -0.61865276
650590625 -0.040918287 -0.80649346 -38.196815 85.323547 -38.023418 85.146164 -0.048146442 -0.61849409
650612500 -0.041076113 -0.80956477 -38.204323 85.352295 -38.013882 85.140289 -0.048639979 -0.62010384
650634375 -0.040981937 -0.81151152 -38.202522 85.327232 -38.013992 85.145126 -0.048293322 -0.62226266
650656250 -0.041079547 -0.81087303 -38.195927 85.413002 -38.014359 85.165428 -0.048855141 -0.61938924
650678125 -0.040690385 -0.8113777 -38.193954 85.387398 -38.01506 85.11499 -0.04864762 -0.62115782
650700000 -0.040881999 -0.81395608 -38.191574 85.330818 -38.00864 85.159546 -0.048635121 -0.6217925
650721875 -0.040622197 -0.81188196 -38.195137 85.338692 -37.987995 85.137932 -0.048702478 -0.62293911
650743750 -0.041078441 -0.81090462 -38.190456 85.372391 -37.997139 85.174133 -0.048424497 -0.62196189
650765625 -0.040972643 -0.81147856 -38.184727 85.335037 -37.994007 85.14682 -0.048414148 -0.62287217
650787500 -0.04079866 -0.81279761 -38.183228 85.339912 -37.994606 85.142021 -0.04890101 -0.62189567
650809375 -0.041023187 -0.81482613 -38.191132 85.311714 -37.977917 85.140732 -0.048470858 -0.62194878
650831250 -0.041175418 -0.81249964 -38.181652 85.34166 -37.983631 85.163872 -0.048591193 -0.62443626
650853125 -0.040972002 -0.81371349 -38.171173 85.417305 -37.988312 85.220009 -0.048631482 -0.62399918
650875000 -0.040345065 -0.8149634 -38.152378 85.321732 -37.980537 85.176804 -0.048945308 -0.62534237
650896875 -0.040828731 -0.81477618 -38.159042 85.320419 -37.959034 85.180313 -0.048470348 -0.62478232
650918750 -0.040931903 -0.81975085 -38.158714 85.355431 -37.965309 85.095154 -0.048802342 -0.62646818
650940625 -0.040672611 -0.81841534 -38.15086 85.391922 -37.96328 85.151733 -0.048794154 -0.62512434
650962500 -0.040768817 -0.81674546 -38.147457 85.353455 -37.95372 85.180046 -0.048887148 -0.62587762
650984375 -0.040279455 -0.81740326 -38.157963 85.355949 -37.956902 85.137917 -0.048890434 -0.62451994
651006250 -0.040569182 -0.81837207 -38.140957 85.294601 -37.945442 85.120285 -0.04857868 -0.62602031
651028125 -0.040762 -0.82181001 -38.141823 85.286545 -37.948639 85.080963 -0.048367579 -0.62929893
651050000 -0.040970489 -0.81778717 -38.140709 85.314247 -37.952221 85.136086 -0.048555441 -0.6290406
651071875 -0.040800653 -0.82125926 -38.140785 85.27932 -37.937893 85.109024 -0.048373777 -0.62870264
651093750 -0.040704742 -0.81871104 -38.131092 85.341072 -37.940411 85.164627 -0.048409235 -0.63054579
651115625 -0.040634952 -0.81970817 -38.130756 85.268433 -37.944721 85.067566 -0.048704207 -0.63162345
651137500 -0.04098751 -0.82169241 -38.131413 85.294662 -37.940987 85.114067 -0.048719067 -0.63238919
651159375 -0.040923305 -0.82465941 -38.112007 85.346428 -37.935951 85.162643 -0.048921335 -0.62912011
651181250 -0.040830474 -0.8235715 -38.113953 85.256645 -37.942894 85.074738 -0.048963383 -0.62857056
651203125 -0.040486239 -0.82159752 -38.124596 85.306694 -37.929626 85.052681 -0.04882843 -0.63144052
651225000 -0.040793836 -0.82415146 -38.110615 85.270271 -37.928398 85.10833 -0.048627082 -0.63197386
651246875 -0.040859602 -0.82476741 -38.115383 85.323952 -37.922104 85.134666 -0.048898734 -0.63329959
651268750 -0.0406732 -0.82508165 -38.105858 85.384117 -37.914482 85.139374 -0.049370203 -0.63501471
651290625 -0.040646769 -0.82432145 -38.106934 85.348488 -37.915424 85.122093 -0.048794292 -0.63441509
651312500 -0.040909171 -0.82541388 -38.100262 85.251106 -37.908672 85.118385 -0.049075376 -0.63446265
651334375 -0.040788326 -0.82762468 -38.091003 85.220284 -37.912392 85.120003 -0.049297102 -0.63420492
651356250 -0.040843721 -0.82608277 -38.089943 85.279434 -37.893425 85.066101 -0.04925213 -0.63494074
651378125 -0.040914897 -0.82517427 -38.087429 85.306595 -37.896717 85.092995 -0.049054213 -0.63590211
651400000 -0.04089886 -0.8272754 -38.086964 85.25972 -37.902172 85.040207 -0.04922545 -0.63656282
651421875 -0.041180588 -0.82690626 -38.084164 85.316589 -37.886208 85.123917 -0.049175169 -0.63580799
651443750 -0.040850382 -0.82541579 -38.066372 85.300636 -37.892735 85.119766 -0.049057994 -0.63890821
651465625 -0.040228803 -0.82848144 -38.063213 85.326393 -37.879826 85.096832 -0.048892323 -0.63618672
651487500 -0.040877763 -0.82574069 -38.070656 85.31955 -37.879017 85.154877 -0.048915971 -0.63574821
651509375 -0.040762216 -0.82648319 -38.05941 85.266357 -37.872856 85.028709 -0.049273986 -0.6371128
651531250 -0.040660199 -0.82722223 -38.061363 85.318665 -37.871761 85.095268 -0.049120046 -0.63638616
651553125 -0.040989481 -0.82770211 -38.059479 85.245834 -37.863304 85.042244 -0.049027212 -0.63709468
651575000 -0.040965557 -0.8303082 -38.062138 85.227356 -37.872055 85.096901 -0.04904056 -0.63720685
651596875 -0.040966015 -0.82962555 -38.051552 85.328911 -37.866516 85.079628 -0.048721489 -0.63745481
651618750 -0.041126605 -0.82946223 -38.044086 85.254646 -37.858063 85.025131 -0.049134571 -0.63857961
651640625 -0.040708777 -0.82855618 -38.039093 85.276192 -37.860424 85.1101 -0.048627127 -0.63999283
651662500 -0.040696904 -0.83111906 -38.036186 85.231049 -37.843983 85.043434 -0.048880167 -0.63814765
651684375 -0.041189928 -0.83023864 -38.03701 85.192024 -37.85593 85.00618 -0.049031537 -0.63915938
651706250 -0.041098867 -0.82906294 -38.033562 85.236862 -37.838406 85.060364 -0.048817564 -0.6366753
651728125 -0.04112336 -0.83117563 -38.027977 85.219376 -37.845776 85.057434 -0.048916858 -0.6392352
651750000 -0.04068489 -0.83326906 -38.021446 85.176201 -37.837574 85.006493 -0.048417054 -0.64044738
651771875 -0.040521108 -0.83205211 -38.01907 85.197701 -37.840076 85.041115 -0.048773263 -0.63978654
651793750 -0.041151203 -0.83530068 -38.013912 85.19236 -37.825432 85.064865 -0.048494384 -0.64059275
651815625 -0.04105014 -0.83253366 -38.01424 85.277847 -37.828007 85.010239 -0.04820491 -0.64089912
651837500 -0.040792003 -0.83305556 -38.000778 85.203178 -37.824116 85.023094 -0.04866128 -0.64165133
651859375 -0.040997155 -0.8350929 -37.997959 85.213097 -37.815861 84.982948 -0.048990197 -0.64357495
651881250 -0.041269608 -0.83445293 -37.991787 85.217796 -37.808247 84.981575 -0.048800293 -0.64257443
651903125 -0.040838938 -0.83606482 -38.001751 85.247749 -37.808453 85.090454 -0.048784487 -0.64176339
651925000 -0.04113581 -0.83825749 -37.988091 85.167137 -37.806549 85.02607 -0.048976339 -0.64589858
651946875 -0.041024268 -0.83671117 -37.983196 85.124367 -37.800411 85.011124 -0.048830979 -0.64442903
651968750 -0.041229639 -0.83511919 -37.983524 85.219604 -37.803368 85.020615 -0.048934232 -0.64555609
651990625 -0.040806003 -0.83825231 -37.977654 85.158943 -37.797459 84.916809 -0.048735145 -0.64597106
652012500 -0.040677734 -0.83744794 -37.977154 85.163795 -37.793228 84.949409 -0.04889584 -0.64608401
652034375 -0.040870409 -0.83806199 -37.975685 85.100052 -37.778397 85.001457 -0.048807677 -0.64526969
652056250 -0.040627904 -0.83763158 -37.970783 85.21447 -37.782001 84.976852 -0.049094647 -0.64583331
652078125 -0.041161891 -0.84010106 -37.958878 85.187294 -37.784569 84.921097 -0.049007162 -0.64736092
652100000 -0.040599387 -0.83876306 -37.956966 85.170845 -37.769638 84.972443 -0.04878084 -0.64786953
652121875 -0.0416242 -0.83971912 -37.961002 85.107025 -37.760685 84.965858 -0.048690233 -0.64878666
652143750 -0.041022249 -0.8406682 -37.955849 85.152 -37.763775 84.978958 -0.048921734 -0.64738357
652165625 -0.041046739 -0.84088403 -37.943108 85.196724 -37.759411 84.913765 -0.048864953 -0.64861214
652187500 -0.041232958 -0.84229612 -37.937038 85.11274 -37.749603 84.928345 -0.048875242 -0.65019947
652209375 -0.040883143 -0.8421638 -37.934799 85.125504 -37.750313 84.963921 -0.048719816 -0.6488418
652231250 -0.040945474 -0.84500206 -37.925591 85.119865 -37.753777 84.915131 -0.048459101 -0.65329707
652253125 -0.041157681 -0.84315872 -37.928211 85.1287 -37.744751 84.870026 -0.048723184 -0.65051776
652275000 -0.041528594 -0.84340209 -37.930645 85.118172 -37.733826 84.907845 -0.048703268 -0.65180194
652296875 -0.04130467 -0.8416335 -37.926682 85.102226 -37.740067 84.882332 -0.048558168 -0.6517055
652318750 -0.041008878 -0.84804976 -37.913441 85.026047 -37.735306 84.878342 -0.048763417 -0.65375412
652340625 -0.041544773 -0.84756577 -37.921959 85.082779 -37.728184 84.873451 -0.048699059 -0.65212888
652362500 -0.041017149 -0.85015798 -37.918701 85.052818 -37.723454 84.86338 -0.048838641 -0.65391105
652384375 -0.040947139 -0.84704638 -37.909061 85.022232 -37.712177 84.814667 -0.048903599 -0.65398419
652406250 -0.041380696 -0.84788477 -37.906605 84.993881 -37.715614 84.837776 -0.048761241 -0.65440816
652428125 -0.040919203 -0.84813774 -37.901379 85.0242 -37.711437 84.877937 -0.048915815 -0.6553477
652450000 -0.041502766 -0.84796989 -37.901478 84.991112 -37.702663 84.801483 -0.048911229 -0.65438962
652471875 -0.041416373 -0.85006708 -37.889145 84.985764 -37.690918 84.7957 -0.049054503 -0.65614027
652493750 -0.040954061 -0.85229772 -37.890041 84.945168 -37.701508 84.769615 -0.048764694 -0.65631986
652515625 -0.04121219 -0.85017782 -37.878571 84.963799 -37.693073 84.766327 -0.048983578 -0.65740371
652537500 -0.041248508 -0.85091478 -37.882366 84.990852 -37.689091 84.797623 -0.048920311 -0.65695667
652559375 -0.041191556 -0.85148638 -37.871948 85.02713 -37.679615 84.778488 -0.048664734 -0.65661705
652581250 -0.041024983 -0.8506062 -37.862354 85.005722 -37.674187 84.785301 -0.049143612 -0.65968853
652603125 -0.041133899 -0.8539834 -37.857872 84.847664 -37.671776 84.733276 -0.048946407 -0.65990973
652625000 -0.041526832 -0.85345769 -37.852837 84.956451 -37.667938 84.74836 -0.048988249 -0.65950555
652646875 -0.041884392 -0.85569745 -37.857151 84.962036 -37.674915 84.755211 -0.049135637 -0.66008234
652668750 -0.041515559 -0.85430187 -37.861198 84.950104 -37.659267 84.698349 -0.049121447 -0.65687084
652690625 -0.041871399 -0.8538512 -37.850376 84.902145 -37.658215 84.733696 -0.049097765 -0.66119403
652712500 -0.041594651 -0.85406631 -37.846313 84.867538 -37.657085 84.654175 -0.0496374 -0.66376352
652734375 -0.041673176 -0.85775739 -37.834709 84.906639 -37.653816 84.698204 -0.049691949 -0.66324133
652756250 -0.041579545 -0.85683268 -37.836071 84.86821 -37.635952 84.693481 -0.049301255 -0.66392601
652778125 -0.041921716 -0.85736549 -37.832886 84.811577 -37.641731 84.694077 -0.049282726 -0.6649875
652800000 -0.041589778 -0.85919929 -37.826199 84.868042 -37.637955 84.609085 -0.049240042 -0.66290587
652821875 -0.041304592 -0.85694647 -37.819481 84.822807 -37.624256 84.613487 -0.049565259 -0.66392219
652843750 -0.041802343 -0.86089814 -37.814545 84.883812 -37.626812 84.602402 -0.049418099 -0.66440094
652865625 -0.042156018 -0.86026543 -37.80698 84.800041 -37.625423 84.534088 -0.049464136 -0.66546208
652887500 -0.041362822 -0.85971206 -37.813286 84.817955 -37.622009 84.605797 -0.049336508 -0.66608518
652909375 -0.042150307 -0.86026055 -37.807327 84.807144 -37.622211 84.543655 -0.049677696 -0.66778666
652931250 -0.041988488 -0.86094934 -37.802216 84.718834 -37.610981 84.5522 -0.049527697 -0.66839391
652953125 -0.041964944 -0.86169231 -37.798012 84.734192 -37.601624 84.5299 -0.049725518 -0.66901195
652975000 -0.04139981 -0.86220133 -37.785065 84.713905 -37.601051 84.522079 -0.049543153 -0.66907525
652996875 -0.041530155 -0.86481059 -37.778591 84.712471 -37.594227 84.48941 -0.049491044 -0.66909635
653018750 -0.042208001 -0.86211276 -37.783787 84.683212 -37.595837 84.494949 -0.049836874 -0.66876394
653040625 -0.041854907 -0.86431098 -37.773342 84.628235 -37.58194 84.484596 -0.049853161 -0.66956371
653062500 -0.041771401 -0.86556208 -37.770847 84.668846 -37.578442 84.450211 -0.050109573 -0.67062229
653084375 -0.041494124 -0.86736715 -37.763767 84.614914 -37.567768 84.455879 -0.050026499 -0.67224383
653106250 -0.041866045 -0.86444503 -37.762981 84.628571 -37.575001 84.380066 -0.049820442 -0.67215651
653128125 -0.041534599 -0.86605138 -37.756199 84.603279 -37.560749 84.444313 -0.050119549 -0.67174995
653150000 -0.042252686 -0.86669004 -37.748096 84.561195 -37.565434 84.407463 -0.049893405 -0.67446047
653171875 -0.042119563 -0.86937523 -37.749962 84.598846 -37.562134 84.333633 -0.050216343 -0.67441905
653193750 -0.041865416 -0.86631167 -37.735477 84.516838 -37.549068 84.329666 -0.050214432 -0.67227501
653215625 -0.041456822 -0.87001431 -37.734493 84.536919 -37.547512 84.35083 -0.050343417 -0.6752888
653237500 -0.042200781 -0.87003154 -37.734776 84.527893 -37.537548 84.278473 -0.050015777 -0.67475224
653259375 -0.042645972 -0.87079459 -37.727535 84.538506 -37.533493 84.271652 -0.050522424 -0.6771121
653281250 -0.042394035 -0.87129086 -37.733074 84.44651 -37.538776 84.299065 -0.050625812 -0.67608672
653303125 -0.042288959 -0.87172997 -37.721943 84.448097 -37.525436 84.272614 -0.050662812 -0.67578304
653325000 -0.042738136 -0.87144434 -37.708515 84.473747 -37.527401 84.248779 -0.050500453 -0.67571354
653346875 -0.042450666 -0.87110168 -37.709007 84.42804 -37.51622 84.251434 -0.050184693 -0.67697489
653368750 -0.042115953 -0.87409776 -37.704216 84.442261 -37.520653 84.160065 -0.050538171 -0.67878598
653390625 -0.04271793 -0.87410933 -37.708309 84.34938 -37.501637 84.171371 -0.050341275 -0.67735946
653412500 -0.042399287 -0.87554747 -37.685181 84.348923 -37.497204 84.224655 -0.050061639 -0.6761902
653434375 -0.042372555 -0.87405866 -37.688187 84.355385 -37.499691 84.107971 -0.050223373 -0.68037391
653456250 -0.042452872 -0.87599963 -37.697994 84.356972 -37.495453 84.103119 -0.050463084 -0.67941725
653478125 -0.042472456 -0.87540752 -37.680412 84.298927 -37.492271 84.099556 -0.050187565 -0.68059528
653500000 -0.042608399 -0.8762458 -37.676189 84.211487 -37.48563 84.102234 -0.050524727 -0.68075883
653521875 -0.042383447 -0.87474775 -37.674316 84.214684 -37.47123 84.038361 -0.05025636 -0.68200874
653543750 -0.042651393 -0.87655371 -37.66814 84.216316 -37.473644 84.00975 -0.050929829 -0.68021923
653565625 -0.042808656 -0.87941176 -37.6665 84.224846 -37.477398 83.917389 -0.050615456 -0.68271607
653587500 -0.042832024 -0.87652069 -37.657074 84.165245 -37.468678 83.96405 -0.050715197 -0.68227893
653609375 -0.043245096 -0.87655765 -37.65596 84.145683 -37.468735 83.957794 -0.051335476 -0.68170148
653631250 -0.043303613 -0.87802589 -37.640697 84.140785 -37.459225 83.900101 -0.051014423 -0.68298328
653653125 -0.042527456 -0.87905937 -37.649693 84.090111 -37.456707 83.930038 -0.051129952 -0.68216747
653675000 -0.042992588 -0.88086814 -37.641132 84.080421 -37.443802 83.924637 -0.051491193 -0.68487567
653696875 -0.0431486 -0.88046175 -37.636559 84.041222 -37.445568 83.845268 -0.051035743 -0.68328899
653718750 -0.043236736 -0.8790378 -37.639183 83.995308 -37.441082 83.718697 -0.051393423 -0.68249208
653740625 -0.043125391 -0.8805967 -37.626389 83.956467 -37.436302 83.821884 -0.050977867 -0.68476582
653762500 -0.042890515 -0.88246524 -37.618065 83.982216 -37.434509 83.767685 -0.051405817 -0.68542874
653784375 -0.043275408 -0.88008368 -37.621368 83.951294 -37.427158 83.674545 -0.051050752 -0.68679005
653806250 -0.04352358 -0.88166684 -37.610912 83.870056 -37.42841 83.714409 -0.051228706 -0.68487132
653828125 -0.043200202 -0.88310158 -37.609737 83.864761 -37.411594 83.686378 -0.051211137 -0.68623096
653850000 -0.043883797 -0.88340485 -37.605507 83.888779 -37.412701 83.614388 -0.051295053 -0.68819946
653871875 -0.043574508 -0.88236594 -37.608505 83.831879 -37.40863 83.646553 -0.051882811 -0.68720436
653893750 -0.043346185 -0.88342738 -37.601028 83.764351 -37.409042 83.570511 -0.051471952 -0.68686956
653915625 -0.043753818 -0.88690758 -37.5797 83.835762 -37.399055 83.524017 -0.051640321 -0.68793988
653937500 -0.044007368 -0.88619357 -37.583912 83.644691 -37.387741 83.497513 -0.0518196 -0.68987924
653959375 -0.04446172 -0.88507515 -37.589775 83.719978 -37.396927 83.499672 -0.051705617 -0.68697482
653981250 -0.044024169 -0.88701874 -37.570576 83.65168 -37.390736 83.487068 -0.051299307 -0.69157523
654003125 -0.044200297 -0.88692224 -37.578407 83.596031 -37.389687 83.385071 -0.051708184 -0.68928456
654025000 -0.044028942 -0.8872028 -37.569195 83.553299 -37.381344 83.401405 -0.051688172 -0.69025964
654046875 -0.044114277 -0.8858766 -37.578316 83.524841 -37.370441 83.262459 -0.051938917 -0.69185346
654068750 -0.044557359 -0.88933843 -37.564041 83.539703 -37.377548 83.351349 -0.052106101 -0.69186026
654090625 -0.044653855 -0.88924849 -37.560089 83.477768 -37.362011 83.207153 -0.052213162 -0.68971193
654112500 -0.044415109 -0.88764048 -37.562622 83.490616 -37.368382 83.300865 -0.05218045 -0.69136631
654134375 -0.044812888 -0.89022815 -37.543106 83.417664 -37.356716 83.243576 -0.052234974 -0.69316357
654156250 -0.044472732 -0.88858867 -37.549412 83.391006 -37.365917 83.117828 -0.05273249 -0.69227797
654178125 -0.044615541 -0.89137375 -37.538502 83.349937 -37.341534 83.187271 -0.052294478 -0.69252831
654200000 -0.045173395 -0.89074606 -37.541679 83.352257 -37.34761 83.059776 -0.052102249 -0.69339442
654221875 -0.04456998 -0.89171278 -37.532818 83.273453 -37.353153 83.080193 -0.052278485 -0.6941483
654243750 -0.044889111 -0.89299726 -37.541252 83.222054 -37.340641 83.021721 -0.052727267 -0.69625545
