!Keysight Technologies,N5221A,MY56011522,A.10.47.06
!Date: Tuesday, September 29, 2020 15:39:38
!Correction: S11(Full 2 Port(1,2)) 
!S21(Full 2 Port(1,2)) 
!S12(Full 2 Port(1,2)) 
!S22(Full 2 Port(1,2)) 
!S2P File: Measurements: S11, S21, S12, S22:
# Hz S  dB   R 50
650000000 -0.051332396 -1.6305606 -32.208969 85.520309 -32.025753 85.271652 -0.060787339 -1.3367748
650021875 -0.051393948 -1.6289735 -32.207371 85.513725 -32.02092 85.291107 -0.060469437 -1.3355368
650043750 -0.051651489 -1.6271219 -32.207504 85.533195 -32.018017 85.321358 -0.060298938 -1.3339063
650065625 -0.051512301 -1.627503 -32.202019 85.540237 -32.015034 85.326141 -0.060319338 -1.3355128
650087500 -0.051386017 -1.6306907 -32.202988 85.529129 -32.019707 85.3172 -0.060332336 -1.3380295
650109375 -0.051627669 -1.6293854 -32.203751 85.55098 -32.012306 85.341095 -0.060114037 -1.3384156
650131250 -0.051349048 -1.6285118 -32.201397 85.586136 -32.015133 85.346497 -0.059917398 -1.3365159
650153125 -0.050874364 -1.6298558 -32.205399 85.62001 -32.020439 85.400681 -0.060373764 -1.3363421
650175000 -0.05088646 -1.6317607 -32.197628 85.555664 -32.017754 85.368706 -0.060615584 -1.3391829
650196875 -0.051043414 -1.6295555 -32.200623 85.589577 -32.015484 85.368027 -0.059934925 -1.3395175
650218750 -0.051173955 -1.6304536 -32.193249 85.606636 -32.012569 85.40715 -0.059720535 -1.3399814
650240625 -0.051365539 -1.6307278 -32.195618 85.626282 -32.011272 85.351189 -0.059665717 -1.3389708
650262500 -0.051203966 -1.6308635 -32.189198 85.636368 -32.006321 85.391403 -0.059875257 -1.3392863
650284375 -0.051054336 -1.6328186 -32.197617 85.623932 -32.009171 85.424286 -0.060110256 -1.3387477
650306250 -0.051318679 -1.6348205 -32.194469 85.638336 -32.004059 85.387848 -0.060032271 -1.3417693
650328125 -0.051133066 -1.6346115 -32.195831 85.664513 -32.00407 85.41124 -0.059921268 -1.3395454
650350000 -0.050749179 -1.6337517 -32.192265 85.647186 -32.005211 85.433533 -0.059954911 -1.3400574
650371875 -0.050807413 -1.6341394 -32.188263 85.675728 -31.997971 85.434944 -0.059605278 -1.3420444
650393750 -0.051153339 -1.6337788 -32.187481 85.667107 -32.001862 85.439804 -0.059793148 -1.3411198
650415625 -0.050363403 -1.634055 -32.187828 85.6577 -32.000969 85.450928 -0.059979044 -1.340752
650437500 -0.050539721 -1.6362871 -32.182892 85.663239 -32.000515 85.437904 -0.059681151 -1.342703
650459375 -0.050876349 -1.6362671 -32.188068 85.663437 -32.001499 85.494049 -0.060183074 -1.3426207
650481250 -0.050544929 -1.6367685 -32.178471 85.679329 -31.994873 85.460884 -0.060120329 -1.3422285
650503125 -0.050854377 -1.6350846 -32.182209 85.688629 -32.000858 85.501991 -0.059973065 -1.3428758
650525000 -0.050999552 -1.6401742 -32.17812 85.697212 -31.989649 85.45623 -0.059955422 -1.3437316
650546875 -0.0509458 -1.639235 -32.176304 85.66272 -31.995403 85.438362 -0.060019173 -1.3431073
650568750 -0.050831065 -1.6391431 -32.175304 85.734726 -31.996649 85.479912 -0.060167968 -1.3452555
650590625 -0.051039055 -1.6377937 -32.171101 85.758995 -31.988829 85.50882 -0.060268588 -1.3433567
650612500 -0.050811179 -1.6422824 -32.177261 85.704865 -31.988478 85.52626 -0.060075063 -1.3461584
650634375 -0.050618291 -1.6415935 -32.170822 85.715553 -31.989868 85.531525 -0.060194753 -1.3476908
650656250 -0.050742153 -1.6434207 -32.172813 85.724831 -31.983793 85.501343 -0.060421653 -1.3456244
650678125 -0.051146947 -1.6412647 -32.17329 85.747818 -31.984571 85.491127 -0.05994403 -1.3469322
650700000 -0.05088453 -1.6388273 -32.168049 85.766899 -31.97868 85.533203 -0.059939671 -1.3468382
650721875 -0.050931774 -1.6422251 -32.172184 85.740532 -31.978916 85.536766 -0.059685603 -1.3465805
650743750 -0.050734606 -1.6419208 -32.168587 85.739891 -31.981178 85.551735 -0.059607651 -1.3497227
650765625 -0.05120001 -1.6422417 -32.168045 85.78363 -31.982433 85.577042 -0.059545632 -1.3488379
650787500 -0.050436594 -1.6424062 -32.160938 85.786751 -31.980595 85.568909 -0.059566144 -1.3471802
650809375 -0.050951336 -1.6441965 -32.164948 85.79808 -31.977795 85.559479 -0.059640188 -1.3489338
650831250 -0.050767206 -1.6428107 -32.168171 85.740517 -31.975693 85.544846 -0.059949674 -1.3482734
650853125 -0.050645392 -1.6448249 -32.158463 85.80748 -31.975395 85.594612 -0.05934222 -1.3516264
650875000 -0.050395317 -1.6437515 -32.162113 85.802956 -31.968884 85.547638 -0.059279714 -1.3504419
650896875 -0.051039256 -1.6441053 -32.156055 85.788376 -31.971008 85.584663 -0.059908111 -1.3502747
650918750 -0.050318692 -1.6457968 -32.152607 85.813736 -31.971687 85.600601 -0.059809111 -1.3498169
650940625 -0.050901409 -1.6462103 -32.155384 85.812653 -31.968037 85.601524 -0.059605092 -1.3494166
650962500 -0.050568316 -1.6455375 -32.151085 85.815681 -31.963449 85.588593 -0.059788458 -1.3507808
650984375 -0.050492093 -1.6460527 -32.152126 85.838753 -31.9627 85.592285 -0.059425976 -1.3543012
651006250 -0.050543718 -1.6466395 -32.148247 85.855698 -31.961468 85.609589 -0.059731498 -1.3528554
651028125 -0.05048937 -1.6475152 -32.149754 85.837708 -31.96273 85.617706 -0.059582934 -1.3515323
651050000 -0.050484143 -1.648116 -32.148941 85.861046 -31.960096 85.621735 -0.059527129 -1.3550293
651071875 -0.050417718 -1.6484158 -32.146976 85.881477 -31.962656 85.645378 -0.060105741 -1.3527542
651093750 -0.05021942 -1.6478958 -32.143158 85.852036 -31.963242 85.623199 -0.059635289 -1.3530757
651115625 -0.050697375 -1.648079 -32.143555 85.846382 -31.959093 85.642876 -0.059464701 -1.3541175
651137500 -0.049867284 -1.6478938 -32.139664 85.842514 -31.953291 85.643227 -0.059793003 -1.3535906
651159375 -0.049986511 -1.6527978 -32.142513 85.842201 -31.951687 85.621429 -0.059853587 -1.3566171
651181250 -0.049953528 -1.6512873 -32.139 85.860672 -31.95372 85.659775 -0.059528671 -1.352999
651203125 -0.049839593 -1.6528021 -32.139011 85.878159 -31.952829 85.662323 -0.05948323 -1.3556391
651225000 -0.050186332 -1.6532047 -32.134705 85.905022 -31.949614 85.633446 -0.059669551 -1.3567536
651246875 -0.049997646 -1.6508467 -32.134983 85.893051 -31.946974 85.660469 -0.059847694 -1.3581123
651268750 -0.049844742 -1.6521015 -32.131733 85.909706 -31.939766 85.680634 -0.059575301 -1.3574436
651290625 -0.049917202 -1.6537569 -32.128769 85.909599 -31.937263 85.685059 -0.059418734 -1.3579181
651312500 -0.049808074 -1.6542913 -32.128895 85.928741 -31.943277 85.690918 -0.059071593 -1.3577399
651334375 -0.050094318 -1.6526847 -32.127037 85.93959 -31.943138 85.718407 -0.05933886 -1.3580899
651356250 -0.050015561 -1.6528256 -32.130054 85.930176 -31.940664 85.709747 -0.059368696 -1.3587825
651378125 -0.049782529 -1.6569113 -32.120495 85.915848 -31.934122 85.733589 -0.059243269 -1.3611808
651400000 -0.050375808 -1.6556181 -32.12817 85.949249 -31.933491 85.751137 -0.059172813 -1.3614889
651421875 -0.050119083 -1.6545249 -32.118141 85.939514 -31.930532 85.716263 -0.059171118 -1.3618149
651443750 -0.050003558 -1.6541399 -32.115955 85.980019 -31.930708 85.729156 -0.059384335 -1.3605232
651465625 -0.04993204 -1.6571473 -32.113163 85.928246 -31.929945 85.730042 -0.059334703 -1.3608402
651487500 -0.050131768 -1.6572173 -32.110191 85.984192 -31.927414 85.745712 -0.059547927 -1.3596911
651509375 -0.050089415 -1.6548762 -32.115273 85.946358 -31.921495 85.795494 -0.059085537 -1.3621235
651531250 -0.049992759 -1.6583865 -32.111767 85.949379 -31.927536 85.726845 -0.059335049 -1.3637813
651553125 -0.049630433 -1.656671 -32.111191 85.982948 -31.924404 85.763176 -0.05924676 -1.3646941
651575000 -0.049665954 -1.6572427 -32.101158 86.011414 -31.919504 85.763268 -0.059101664 -1.3638681
651596875 -0.049395677 -1.65877 -32.100132 86.002853 -31.916275 85.782379 -0.058810402 -1.3643918
651618750 -0.049314018 -1.6590983 -32.10136 86.015938 -31.912956 85.794502 -0.058671404 -1.364189
651640625 -0.04975716 -1.6596054 -32.095928 86.005417 -31.914003 85.79483 -0.058753971 -1.3637027
651662500 -0.049820021 -1.6590514 -32.09663 86.017563 -31.912542 85.808212 -0.058822148 -1.3656142
651684375 -0.04956631 -1.6591763 -32.093815 86.003944 -31.907284 85.773315 -0.058989719 -1.3665675
651706250 -0.049743276 -1.6588528 -32.091141 86.021889 -31.905546 85.790672 -0.059072427 -1.3670535
651728125 -0.049685538 -1.661087 -32.096996 86.011009 -31.907532 85.779373 -0.059128292 -1.3655901
651750000 -0.048813373 -1.6617264 -32.093094 85.990959 -31.901688 85.818871 -0.058515828 -1.368572
651771875 -0.049243022 -1.6626891 -32.085468 86.04203 -31.899309 85.853966 -0.058633719 -1.3684112
651793750 -0.049234882 -1.6646562 -32.083664 86.038567 -31.898321 85.806335 -0.058329664 -1.3687254
651815625 -0.049652494 -1.6627961 -32.083916 86.069176 -31.891777 85.820549 -0.058681164 -1.369418
651837500 -0.049071554 -1.6637762 -32.081837 86.06633 -31.892935 85.815529 -0.058587987 -1.3698084
651859375 -0.049606938 -1.6630869 -32.079498 86.070908 -31.892078 85.844284 -0.058717601 -1.3700103
651881250 -0.049169924 -1.6684004 -32.071671 86.054329 -31.886829 85.824753 -0.058653548 -1.3709955
651903125 -0.049592238 -1.6686654 -32.07478 86.082649 -31.887472 85.828583 -0.058160275 -1.3687118
651925000 -0.049643513 -1.6651905 -32.073849 86.090164 -31.884251 85.89006 -0.057928294 -1.3715833
651946875 -0.049283996 -1.6665124 -32.067848 86.086319 -31.876068 85.859314 -0.05807538 -1.3722826
651968750 -0.049372874 -1.6657298 -32.067295 86.067375 -31.876379 85.824577 -0.058091696 -1.373245
651990625 -0.048868563 -1.667524 -32.06295 86.069725 -31.878723 85.878212 -0.057963926 -1.3725383
652012500 -0.049261268 -1.671069 -32.059509 86.112564 -31.87211 85.864853 -0.058167893 -1.374083
652034375 -0.049290854 -1.6692067 -32.060581 86.068321 -31.868011 85.877228 -0.058111511 -1.3739603
652056250 -0.049408372 -1.6685448 -32.058819 86.079659 -31.869177 85.887039 -0.058096979 -1.3759489
652078125 -0.049094867 -1.6710052 -32.056202 86.044556 -31.868078 85.877777 -0.058024429 -1.3736788
652100000 -0.049189404 -1.6684716 -32.055302 86.088661 -31.862768 85.87558 -0.057914976 -1.3758205
652121875 -0.049171381 -1.6710178 -32.05415 86.130951 -31.864241 85.854118 -0.057987191 -1.3778927
652143750 -0.049297225 -1.6722423 -32.043331 86.134407 -31.85718 85.844376 -0.057655852 -1.3764001
652165625 -0.049321447 -1.671948 -32.051029 86.078262 -31.854033 85.864906 -0.057888512 -1.3767883
652187500 -0.049166229 -1.6748872 -32.041603 86.111679 -31.855165 85.898354 -0.057912443 -1.3770883
652209375 -0.048948582 -1.6761611 -32.041573 86.103294 -31.849331 85.866699 -0.057828948 -1.3788266
652231250 -0.048838429 -1.6736327 -32.035645 86.127151 -31.84683 85.871506 -0.057769801 -1.3783195
652253125 -0.049105074 -1.675052 -32.036388 86.119247 -31.844818 85.867561 -0.057994559 -1.380587
652275000 -0.049200889 -1.6770546 -32.034252 86.086342 -31.84375 85.888229 -0.057902709 -1.3806139
652296875 -0.049443901 -1.6753482 -32.029072 86.10704 -31.841307 85.858383 -0.057677079 -1.3802996
652318750 -0.048784018 -1.677681 -32.027378 86.09021 -31.837185 85.852448 -0.057745416 -1.3802872
652340625 -0.04912151 -1.6774527 -32.018391 86.11129 -31.836632 85.844925 -0.057360273 -1.3815423
652362500 -0.048611637 -1.6782618 -32.024963 86.096527 -31.833941 85.881355 -0.057464585 -1.3820986
652384375 -0.049016308 -1.6804971 -32.021633 86.093719 -31.836746 85.860924 -0.057704993 -1.3820758
652406250 -0.049209688 -1.6807015 -32.020256 86.097176 -31.837473 85.877586 -0.057653155 -1.3831357
652428125 -0.049179628 -1.6814864 -32.021278 86.104958 -31.832806 85.862274 -0.057614706 -1.3822449
652450000 -0.049570493 -1.6793346 -32.013573 86.074188 -31.825333 85.84536 -0.057463195 -1.3841873
652471875 -0.049164306 -1.6813017 -32.013145 86.081917 -31.825884 85.863106 -0.057707325 -1.3844297
652493750 -0.049005978 -1.6812973 -32.013283 86.083412 -31.820572 85.882851 -0.057638861 -1.3853297
652515625 -0.049444195 -1.6816138 -32.009827 86.089874 -31.815641 85.845627 -0.057632949 -1.3855197
652537500 -0.049727812 -1.6821448 -32.006184 86.101494 -31.818388 85.856766 -0.057544511 -1.3858962
652559375 -0.04909756 -1.6835403 -32.011879 86.102623 -31.815571 85.868164 -0.057599358 -1.3852975
652581250 -0.049325276 -1.6844555 -32.012459 86.082191 -31.817556 85.881409 -0.057708673 -1.386479
652603125 -0.049546421 -1.683223 -32.001713 86.091026 -31.814835 85.80706 -0.057706438 -1.3902091
652625000 -0.04940816 -1.6840911 -32.006268 86.121796 -31.815001 85.863998 -0.057783246 -1.390587
652646875 -0.049490083 -1.6838254 -32.001789 86.118835 -31.815599 85.87368 -0.05764446 -1.3897673
652668750 -0.049282074 -1.6847987 -32.003204 86.095123 -31.807793 85.85009 -0.057877343 -1.3908
652690625 -0.049221557 -1.6882045 -31.993389 86.046051 -31.806246 85.831116 -0.057766438 -1.3901956
652712500 -0.049478274 -1.6868232 -31.994097 86.079216 -31.806026 85.831535 -0.057848983 -1.3917069
652734375 -0.048989311 -1.6873732 -31.990248 86.068291 -31.802637 85.820793 -0.05776703 -1.3896097
652756250 -0.048941422 -1.6879493 -31.995319 86.047035 -31.800797 85.844246 -0.058004439 -1.3913963
652778125 -0.049031913 -1.6891463 -31.98877 86.081329 -31.800264 85.861916 -0.05790386 -1.3925188
652800000 -0.049398564 -1.6877596 -31.99017 86.091438 -31.796436 85.835487 -0.057880182 -1.3930019
652821875 -0.049144741 -1.6897738 -31.987701 86.078667 -31.800274 85.872444 -0.058000166 -1.392415
652843750 -0.049459334 -1.6902453 -31.982872 86.036331 -31.797995 85.846275 -0.058052104 -1.3935996
652865625 -0.048908908 -1.6914924 -31.982965 86.074554 -31.792786 85.856247 -0.057799757 -1.3921913
652887500 -0.049089979 -1.689207 -31.984631 86.108253 -31.789371 85.857452 -0.057454202 -1.3942895
652909375 -0.048900347 -1.6916595 -31.978594 86.105423 -31.788454 85.840813 -0.058130801 -1.3964319
652931250 -0.048853628 -1.6926701 -31.977448 86.055092 -31.796055 85.83532 -0.057985365 -1.3947321
652953125 -0.049288869 -1.692021 -31.972031 86.077606 -31.7833 85.85022 -0.058014866 -1.3938013
652975000 -0.049405199 -1.6931458 -31.977551 86.056229 -31.785267 85.882637 -0.058013655 -1.3955425
652996875 -0.049489938 -1.6920201 -31.973574 86.062187 -31.781626 85.851059 -0.057881672 -1.3981037
653018750 -0.049343452 -1.6957631 -31.975712 86.066917 -31.77738 85.895523 -0.057436302 -1.3970188
653040625 -0.048598979 -1.692892 -31.970499 86.093445 -31.78117 85.88752 -0.057809703 -1.3968418
653062500 -0.048970673 -1.6951441 -31.97226 86.07605 -31.779709 85.840622 -0.057901204 -1.3976156
653084375 -0.049248252 -1.6963162 -31.965479 86.065231 -31.78145 85.847397 -0.057882909 -1.3988965
653106250 -0.048958033 -1.6967998 -31.963966 86.11068 -31.771494 85.833977 -0.057647675 -1.3996308
653128125 -0.04927424 -1.6967925 -31.968912 86.095818 -31.772278 85.886749 -0.058115557 -1.4004096
653150000 -0.049308654 -1.6955082 -31.962069 86.107559 -31.771149 85.856621 -0.057869811 -1.3994774
653171875 -0.049355533 -1.6960895 -31.960567 86.065025 -31.770803 85.844269 -0.058094829 -1.3999538
653193750 -0.049143743 -1.6975498 -31.958157 86.103973 -31.767319 85.836166 -0.05796735 -1.4010115
653215625 -0.048607431 -1.6962329 -31.95381 86.095772 -31.766527 85.835983 -0.058048297 -1.4030815
653237500 -0.048761811 -1.6985062 -31.954166 86.104797 -31.764246 85.841057 -0.05822359 -1.4026282
653259375 -0.04871181 -1.700243 -31.952909 86.111099 -31.760082 85.847389 -0.058103807 -1.4027345
653281250 -0.049094077 -1.6978217 -31.949736 86.069794 -31.762226 85.861679 -0.058076859 -1.4032527
653303125 -0.048658255 -1.6994119 -31.948748 86.080093 -31.761742 85.816467 -0.057793409 -1.4036305
653325000 -0.048587684 -1.7021303 -31.944996 86.079956 -31.757307 85.845512 -0.057921767 -1.4051442
653346875 -0.0489778 -1.7029417 -31.943924 86.110146 -31.752653 85.858818 -0.057684571 -1.4048615
653368750 -0.048830878 -1.7031811 -31.944548 86.118759 -31.755671 85.892044 -0.057757132 -1.4045546
653390625 -0.049269684 -1.7034779 -31.942944 86.103508 -31.754671 85.873047 -0.057814199 -1.4060311
653412500 -0.049078304 -1.703756 -31.937447 86.080803 -31.750862 85.857628 -0.057817176 -1.4041086
653434375 -0.048803501 -1.7023208 -31.943317 86.099625 -31.754616 85.871933 -0.058111537 -1.4055649
653456250 -0.048774291 -1.7037165 -31.938984 86.087265 -31.739422 85.84713 -0.058068726 -1.4065617
653478125 -0.048997834 -1.7026567 -31.935419 86.079803 -31.745369 85.860367 -0.0579664 -1.4084197
653500000 -0.048684999 -1.7042283 -31.931114 86.092789 -31.745638 85.866417 -0.057912353 -1.4068329
653521875 -0.049005523 -1.7037245 -31.936026 86.102325 -31.740541 85.878181 -0.057803392 -1.4089324
653543750 -0.04899342 -1.7061763 -31.923153 86.106689 -31.737705 85.870171 -0.05799764 -1.40885
653565625 -0.049293384 -1.7071137 -31.92786 86.101021 -31.738737 85.867851 -0.058143463 -1.4094505
653587500 -0.048713543 -1.7062138 -31.924831 86.076546 -31.734335 85.847496 -0.057581838 -1.4093491
653609375 -0.049000569 -1.7072457 -31.921331 86.095802 -31.732203 85.890579 -0.057658628 -1.4063697
653631250 -0.048923504 -1.7068942 -31.919941 86.077179 -31.737335 85.874664 -0.057916645 -1.4109955
653653125 -0.049464185 -1.7071254 -31.919924 86.083206 -31.733707 85.880508 -0.057381801 -1.410148
653675000 -0.049151551 -1.7107166 -31.913916 86.046562 -31.724619 85.85585 -0.057356887 -1.4090012
653696875 -0.048843879 -1.7092985 -31.921337 86.11821 -31.726454 85.854378 -0.057761155 -1.4089352
653718750 -0.048987556 -1.7102382 -31.911718 86.151863 -31.727289 85.849731 -0.05778617 -1.4125677
653740625 -0.049231824 -1.7104746 -31.911736 86.084183 -31.719011 85.907326 -0.057550423 -1.4105034
653762500 -0.049289111 -1.7103621 -31.906303 86.081589 -31.722723 85.859413 -0.057338588 -1.4125066
653784375 -0.049184151 -1.713064 -31.910749 86.11869 -31.717484 85.87677 -0.05771004 -1.4127113
653806250 -0.048990794 -1.7111338 -31.906467 86.105583 -31.712364 85.86338 -0.057139196 -1.414108
653828125 -0.049074303 -1.7124758 -31.904274 86.067268 -31.718243 85.849327 -0.057386428 -1.413514
653850000 -0.04876668 -1.7110491 -31.900776 86.068596 -31.720198 85.885742 -0.057630923 -1.4122604
653871875 -0.049007226 -1.7109556 -31.905214 86.098259 -31.716028 85.910103 -0.057519753 -1.4138285
653893750 -0.049252536 -1.7133758 -31.900764 86.071075 -31.708914 85.869415 -0.05737083 -1.4140607
653915625 -0.048939973 -1.7140716 -31.89789 86.094444 -31.705793 85.853935 -0.057415649 -1.4160132
653937500 -0.049232408 -1.7125301 -31.896194 86.130745 -31.711208 85.875778 -0.057433341 -1.4143515
653959375 -0.048651151 -1.7147033 -31.894262 86.119766 -31.705473 85.868866 -0.057161469 -1.4148415
653981250 -0.049128726 -1.7151771 -31.8939 86.095802 -31.705704 85.865097 -0.057495832 -1.4157611
654003125 -0.048960429 -1.7173669 -31.89019 86.066879 -31.700216 85.856392 -0.057191439 -1.415748
654025000 -0.048936963 -1.7127825 -31.889494 86.118202 -31.699514 85.859093 -0.057472177 -1.4176209
654046875 -0.048918795 -1.7151806 -31.890642 86.065292 -31.694742 85.869118 -0.057622597 -1.4167129
654068750 -0.049345367 -1.7186272 -31.888756 86.076889 -31.700844 85.843338 -0.057008334 -1.4196728
654090625 -0.048915658 -1.7197663 -31.889538 86.114586 -31.690142 85.860039 -0.056818269 -1.4186471
654112500 -0.049244251 -1.7177243 -31.883703 86.099976 -31.697054 85.861504 -0.05724325 -1.4190291
654134375 -0.04912065 -1.717872 -31.884331 86.098114 -31.691202 85.879036 -0.057347175 -1.418286
654156250 -0.048959367 -1.719662 -31.880264 86.065613 -31.69273 85.892044 -0.05779307 -1.4196304
654178125 -0.049328607 -1.7199062 -31.879623 86.084557 -31.689083 85.893158 -0.057396132 -1.419964
654200000 -0.049049951 -1.7181844 -31.874311 86.107033 -31.683853 85.88073 -0.057622246 -1.4209715
654221875 -0.049092826 -1.7207813 -31.86945 86.094391 -31.68185 85.871773 -0.057486806 -1.4216368
654243750 -0.049076296 -1.7191485 -31.872252 86.084503 -31.678335 85.858871 -0.057197303 -1.4219608
654265625 -0.049246948 -1.7207949 -31.868021 86.111122 -31.679796 85.877342 -0.057405211 -1.4240617
654287500 -0.04916089 -1.7210479 -31.871449 86.09848 -31.679569 85.87928 -0.05746609 -1.4228474
654309375 -0.04927757 -1.7215056 -31.865849 86.096924 -31.673082 85.879616 -0.057722636 -1.4239393
654331250 -0.049468752 -1.7243592 -31.864609 86.095436 -31.670952 85.847023 -0.057384755 -1.424925
