# GHz S MA R 50

7.000000000000000e-03  9.9988907615048295e-01 -7.9470191891093639e-02  1.3209488579191469e-03  8.9484333878370364e+01  1.3209488579191471e-03  8.9484333878370364e+01  9.9988907615048295e-01 -7.9470191891093625e-02
7.007507507507508e-03  9.9988907276862204e-01 -7.9605130345808378e-02  1.3232329279003377e-03  8.9484936217764414e+01  1.3232329279003377e-03  8.9484936217764414e+01  9.9988907276862182e-01 -7.9605130345808350e-02
7.015015015015016e-03  9.9988906937017108e-01 -7.9740435035918614e-02  1.3255233892997111e-03  8.9485537620816132e+01  1.3255233892997111e-03  8.9485537620816132e+01  9.9988906937017086e-01 -7.9740435035918614e-02
7.022522522522522e-03  9.9988906595499183e-01 -7.9876108749560915e-02  1.3278202907739082e-03  8.9486138091654340e+01  1.3278202907739086e-03  8.9486138091654340e+01  9.9988906595499139e-01 -7.9876108749560928e-02
7.030030030030030e-03  9.9988906252294329e-01 -8.0012154303031699e-02  1.3301236814710011e-03  8.9486737634383985e+01  1.3301236814710008e-03  8.9486737634383985e+01  9.9988906252294341e-01 -8.0012154303031699e-02
7.037537537537538e-03  9.9988905907388403e-01 -8.0148574541144213e-02  1.3324336110367221e-03  8.9487336253086028e+01  1.3324336110367224e-03  8.9487336253086028e+01  9.9988905907388415e-01 -8.0148574541144213e-02
7.045045045045046e-03  9.9988905560767094e-01 -8.0285372337590713e-02  1.3347501296207904e-03  8.9487933951817382e+01  1.3347501296207909e-03  8.9487933951817382e+01  9.9988905560767094e-01 -8.0285372337590713e-02
7.052552552552553e-03  9.9988905212415791e-01 -8.0422550595310630e-02  1.3370732878833264e-03  8.9488530734610663e+01  1.3370732878833264e-03  8.9488530734610663e+01  9.9988905212415780e-01 -8.0422550595310643e-02
7.060060060060060e-03  9.9988904862319861e-01 -8.0560112246863672e-02  1.3394031370013736e-03  8.9489126605474183e+01  1.3394031370013734e-03  8.9489126605474183e+01  9.9988904862319883e-01 -8.0560112246863672e-02
7.067567567567568e-03  9.9988904510464482e-01 -8.0698060254809315e-02  1.3417397286755160e-03  8.9489721568391758e+01  1.3417397286755164e-03  8.9489721568391758e+01  9.9988904510464471e-01 -8.0698060254809342e-02
7.075075075075076e-03  9.9988904156834502e-01 -8.0836397612091979e-02  1.3440831151365960e-03  8.9490315627322545e+01  1.3440831151365963e-03  8.9490315627322545e+01  9.9988904156834502e-01 -8.0836397612091951e-02
7.082582582582583e-03  9.9988903801414808e-01 -8.0975127342431633e-02  1.3464333491525441e-03  8.9490908786200976e+01  1.3464333491525443e-03  8.9490908786200976e+01  9.9988903801414775e-01 -8.0975127342431660e-02
7.090090090090091e-03  9.9988903444189936e-01 -8.1114252500721296e-02  1.3487904840352985e-03  8.9491501048936527e+01  1.3487904840352989e-03  8.9491501048936527e+01  9.9988903444189925e-01 -8.1114252500721296e-02
7.097597597597598e-03  9.9988903085144309e-01 -8.1253776173430034e-02  1.3511545736478534e-03  8.9492092419413581e+01  1.3511545736478528e-03  8.9492092419413581e+01  9.9988903085144321e-01 -8.1253776173430034e-02
7.105105105105106e-03  9.9988902724262196e-01 -8.1393701479012620e-02  1.3535256724113971e-03  8.9492682901491335e+01  1.3535256724113976e-03  8.9492682901491335e+01  9.9988902724262196e-01 -8.1393701479012634e-02
7.112612612612613e-03  9.9988902361527621e-01 -8.1534031568325255e-02  1.3559038353125751e-03  8.9493272499003524e+01  1.3559038353125753e-03  8.9493272499003524e+01  9.9988902361527610e-01 -8.1534031568325255e-02
7.120120120120121e-03  9.9988901996924406e-01 -8.1674769625048105e-02  1.3582891179108590e-03  8.9493861215758301e+01  1.3582891179108590e-03  8.9493861215758301e+01  9.9988901996924429e-01 -8.1674769625048105e-02
7.127627627627629e-03  9.9988901630436278e-01 -8.1815918866114307e-02  1.3606815763460339e-03  8.9494449055538112e+01  1.3606815763460339e-03  8.9494449055538112e+01  9.9988901630436289e-01 -8.1815918866114307e-02
7.135135135135135e-03  9.9988901262046626e-01 -8.1957482542145715e-02  1.3630812673458034e-03  8.9495036022099427e+01  1.3630812673458034e-03  8.9495036022099427e+01  9.9988901262046637e-01 -8.1957482542145715e-02
7.142642642642642e-03  9.9988900891738741e-01 -8.2099463937895537e-02  1.3654882482335168e-03  8.9495622119172580e+01  1.3654882482335168e-03  8.9495622119172580e+01  9.9988900891738708e-01 -8.2099463937895564e-02
7.150150150150150e-03  9.9988900519495649e-01 -8.2241866372698036e-02  1.3679025769360123e-03  8.9496207350461589e+01  1.3679025769360116e-03  8.9496207350461589e+01  9.9988900519495660e-01 -8.2241866372698064e-02
7.157657657657658e-03  9.9988900145300241e-01 -8.2384693200925244e-02  1.3703243119915897e-03  8.9496791719643923e+01  1.3703243119915895e-03  8.9496791719643923e+01  9.9988900145300252e-01 -8.2384693200925271e-02
7.165165165165166e-03  9.9988899769135153e-01 -8.2527947812450889e-02  1.3727535125581079e-03  8.9497375230370309e+01  1.3727535125581086e-03  8.9497375230370309e+01  9.9988899769135142e-01 -8.2527947812450889e-02
7.172672672672673e-03  9.9988899390982766e-01 -8.2671633633122035e-02  1.3751902384212147e-03  8.9497957886264530e+01  1.3751902384212143e-03  8.9497957886264530e+01  9.9988899390982766e-01 -8.2671633633122035e-02
7.180180180180180e-03  9.9988899010825372e-01 -8.2815754125237867e-02  1.3776345500027003e-03  8.9498539690923195e+01  1.3776345500027003e-03  8.9498539690923195e+01  9.9988899010825361e-01 -8.2815754125237853e-02
7.187687687687688e-03  9.9988898628644907e-01 -8.2960312788036297e-02  1.3800865083689925e-03  8.9499120647915476e+01  1.3800865083689925e-03  8.9499120647915476e+01  9.9988898628644873e-01 -8.2960312788036283e-02
7.195195195195196e-03  9.9988898244423108e-01 -8.3105313158188476e-02  1.3825461752397844e-03  8.9499700760782915e+01  1.3825461752397840e-03  8.9499700760782915e+01  9.9988898244423141e-01 -8.3105313158188449e-02
7.202702702702703e-03  9.9988897858141601e-01 -8.3250758810301181e-02  1.3850136129968024e-03  8.9500280033039189e+01  1.3850136129968024e-03  8.9500280033039189e+01  9.9988897858141634e-01 -8.3250758810301181e-02
7.210210210210211e-03  9.9988897469781690e-01 -8.3396653357427200e-02  1.3874888846927144e-03  8.9500858468169767e+01  1.3874888846927137e-03  8.9500858468169767e+01  9.9988897469781712e-01 -8.3396653357427200e-02
7.217717717717718e-03  9.9988897079324390e-01 -8.3543000451584318e-02  1.3899720540601829e-03  8.9501436069631822e+01  1.3899720540601825e-03  8.9501436069631822e+01  9.9988897079324401e-01 -8.3543000451584318e-02
7.225225225225226e-03  9.9988896686750628e-01 -8.3689803784282257e-02  1.3924631855210677e-03  8.9502012840853737e+01  1.3924631855210679e-03  8.9502012840853737e+01  9.9988896686750617e-01 -8.3689803784282257e-02
7.232732732732733e-03  9.9988896292040952e-01 -8.3837067087058639e-02  1.3949623441957737e-03  8.9502588785235091e+01  1.3949623441957741e-03  8.9502588785235091e+01  9.9988896292040919e-01 -8.3837067087058625e-02
7.240240240240241e-03  9.9988895895175744e-01 -8.3984794132023449e-02  1.3974695959127531e-03  8.9503163906146156e+01  1.3974695959127527e-03  8.9503163906146156e+01  9.9988895895175756e-01 -8.3984794132023463e-02
7.247747747747749e-03  9.9988895496135144e-01 -8.4132988732412400e-02  1.3999850072181641e-03  8.9503738206927693e+01  1.3999850072181641e-03  8.9503738206927693e+01  9.9988895496135122e-01 -8.4132988732412400e-02
7.255255255255256e-03  9.9988895094898977e-01 -8.4281654743149484e-02  1.4025086453856880e-03  8.9504311690890759e+01  1.4025086453856885e-03  8.9504311690890759e+01  9.9988895094898933e-01 -8.4281654743149484e-02
7.262762762762763e-03  9.9988894691446883e-01 -8.4430796061418817e-02  1.4050405784265104e-03  8.9504884361316215e+01  1.4050405784265104e-03  8.9504884361316215e+01  9.9988894691446883e-01 -8.4430796061418831e-02
7.270270270270271e-03  9.9988894285758201e-01 -8.4580416627245719e-02  1.4075808750994535e-03  8.9505456221454494e+01  1.4075808750994537e-03  8.9505456221454494e+01  9.9988894285758179e-01 -8.4580416627245705e-02
7.277777777777779e-03  9.9988893877812046e-01 -8.4730520424087574e-02  1.4101296049213025e-03  8.9506027274525309e+01  1.4101296049213027e-03  8.9506027274525309e+01  9.9988893877812024e-01 -8.4730520424087574e-02
7.285285285285286e-03  9.9988893467587159e-01 -8.4881111479434501e-02  1.4126868381772731e-03  8.9506597523717332e+01  1.4126868381772728e-03  8.9506597523717332e+01  9.9988893467587192e-01 -8.4881111479434515e-02
7.292792792792793e-03  9.9988893055062178e-01 -8.5032193865419978e-02  1.4152526459316752e-03  8.9507166972187775e+01  1.4152526459316750e-03  8.9507166972187775e+01  9.9988893055062178e-01 -8.5032193865419964e-02
7.300300300300300e-03  9.9988892640215399e-01 -8.5183771699441413e-02  1.4178271000387461e-03  8.9507735623062089e+01  1.4178271000387461e-03  8.9507735623062089e+01  9.9988892640215377e-01 -8.5183771699441441e-02
7.307807807807808e-03  9.9988892223024672e-01 -8.5335849144791837e-02  1.4204102731536635e-03  8.9508303479433636e+01  1.4204102731536637e-03  8.9508303479433636e+01  9.9988892223024661e-01 -8.5335849144791837e-02
7.315315315315316e-03  9.9988891803467872e-01 -8.5488430411301025e-02  1.4230022387437477e-03  8.9508870544363205e+01  1.4230022387437477e-03  8.9508870544363205e+01  9.9988891803467850e-01 -8.5488430411301011e-02
7.322822822822823e-03  9.9988891381522282e-01 -8.5641519755988674e-02  1.4256030710998470e-03  8.9509436820878804e+01  1.4256030710998470e-03  8.9509436820878804e+01  9.9988891381522305e-01 -8.5641519755988674e-02
7.330330330330330e-03  9.9988890957165111e-01 -8.5795121483727574e-02  1.4282128453479226e-03  8.9510002311975128e+01  1.4282128453479226e-03  8.9510002311975128e+01  9.9988890957165100e-01 -8.5795121483727588e-02
7.337837837837838e-03  9.9988890530373153e-01 -8.5949239947918782e-02  1.4308316374608237e-03  8.9510567020613209e+01  1.4308316374608233e-03  8.9510567020613209e+01  9.9988890530373153e-01 -8.5949239947918810e-02
7.345345345345346e-03  9.9988890101122985e-01 -8.6103879551177515e-02  1.4334595242702598e-03  8.9511130949720041e+01  1.4334595242702598e-03  8.9511130949720041e+01  9.9988890101122985e-01 -8.6103879551177542e-02
7.352852852852853e-03  9.9988889669390735e-01 -8.6259044746031396e-02  1.4360965834789884e-03  8.9511694102188102e+01  1.4360965834789880e-03  8.9511694102188102e+01  9.9988889669390757e-01 -8.6259044746031383e-02
7.360360360360361e-03  9.9988889235152378e-01 -8.6414740035630114e-02  1.4387428936731947e-03  8.9512256480874981e+01  1.4387428936731945e-03  8.9512256480874981e+01  9.9988889235152389e-01 -8.6414740035630128e-02
7.367867867867868e-03  9.9988888798383502e-01 -8.6570969974467560e-02  1.4413985343350992e-03  8.9512818088602856e+01  1.4413985343350985e-03  8.9512818088602856e+01  9.9988888798383513e-01 -8.6570969974467560e-02
7.375375375375376e-03  9.9988888359059336e-01 -8.6727739169116150e-02  1.4440635858557688e-03  8.9513378928158133e+01  1.4440635858557686e-03  8.9513378928158133e+01  9.9988888359059347e-01 -8.6727739169116150e-02
7.382882882882883e-03  9.9988887917154812e-01 -8.6885052278974001e-02  1.4467381295481569e-03  8.9513939002290925e+01  1.4467381295481569e-03  8.9513939002290925e+01  9.9988887917154823e-01 -8.6885052278974001e-02
7.390390390390391e-03  9.9988887472644561e-01 -8.7042914017024492e-02  1.4494222476603620e-03  8.9514498313714583e+01  1.4494222476603620e-03  8.9514498313714583e+01  9.9988887472644572e-01 -8.7042914017024492e-02
7.397897897897899e-03  9.9988887025502837e-01 -8.7201329150609838e-02  1.4521160233891231e-03  8.9515056865105194e+01  1.4521160233891231e-03  8.9515056865105194e+01  9.9988887025502826e-01 -8.7201329150609838e-02
7.405405405405406e-03  9.9988886575703528e-01 -8.7360302502217185e-02  1.4548195408935418e-03  8.9515614659101132e+01  1.4548195408935418e-03  8.9515614659101132e+01  9.9988886575703551e-01 -8.7360302502217144e-02
7.412912912912913e-03  9.9988886123220277e-01 -8.7519838950279108e-02  1.4575328853090499e-03  8.9516171698302500e+01  1.4575328853090497e-03  8.9516171698302500e+01  9.9988886123220277e-01 -8.7519838950279136e-02
7.420420420420421e-03  9.9988885668026184e-01 -8.7679943429987611e-02  1.4602561427616140e-03  8.9516727985270549e+01  1.4602561427616136e-03  8.9516727985270549e+01  9.9988885668026184e-01 -8.7679943429987611e-02
7.427927927927929e-03  9.9988885210094181e-01 -8.7840620934122593e-02  1.4629894003821984e-03  8.9517283522527293e+01  1.4629894003821984e-03  8.9517283522527293e+01  9.9988885210094169e-01 -8.7840620934122607e-02
7.435435435435437e-03  9.9988884749396667e-01 -8.8001876513894836e-02  1.4657327463214710e-03  8.9517838312554801e+01  1.4657327463214707e-03  8.9517838312554801e+01  9.9988884749396700e-01 -8.8001876513894836e-02
7.442942942942943e-03  9.9988884285905821e-01 -8.8163715279803864e-02  1.4684862697647778e-03  8.9518392357794710e+01  1.4684862697647778e-03  8.9518392357794710e+01  9.9988884285905832e-01 -8.8163715279803864e-02
7.450450450450450e-03  9.9988883819593399e-01 -8.8326142402510840e-02  1.4712500609473749e-03  8.9518945660647560e+01  1.4712500609473751e-03  8.9518945660647560e+01  9.9988883819593410e-01 -8.8326142402510813e-02
7.457957957957958e-03  9.9988883350430646e-01 -8.8489163113727246e-02  1.4740242111699361e-03  8.9519498223472340e+01  1.4740242111699361e-03  8.9519498223472340e+01  9.9988883350430635e-01 -8.8489163113727259e-02
7.465465465465466e-03  9.9988882878388530e-01 -8.8652782707118821e-02  1.4768088128143291e-03  8.9520050048585745e+01  1.4768088128143295e-03  8.9520050048585745e+01  9.9988882878388508e-01 -8.8652782707118821e-02
7.472972972972973e-03  9.9988882403437607e-01 -8.8817006539226195e-02  1.4796039593596838e-03  8.9520601138261597e+01  1.4796039593596843e-03  8.9520601138261597e+01  9.9988882403437618e-01 -8.8817006539226195e-02
7.480480480480481e-03  9.9988881925548023e-01 -8.8981840030401424e-02  1.4824097453987339e-03  8.9521151494730205e+01  1.4824097453987339e-03  8.9521151494730205e+01  9.9988881925548045e-01 -8.8981840030401466e-02
7.487987987987988e-03  9.9988881444689481e-01 -8.9147288665762034e-02  1.4852262666544638e-03  8.9521701120177710e+01  1.4852262666544636e-03  8.9521701120177710e+01  9.9988881444689481e-01 -8.9147288665762020e-02
7.495495495495496e-03  9.9988880960831295e-01 -8.9313357996161288e-02  1.4880536199970487e-03  8.9522250016745375e+01  1.4880536199970487e-03  8.9522250016745375e+01  9.9988880960831317e-01 -8.9313357996161274e-02
7.503003003003004e-03  9.9988880473942332e-01 -8.9480053639176896e-02  1.4908919034611020e-03  8.9522798186528945e+01  1.4908919034611018e-03  8.9522798186528945e+01  9.9988880473942343e-01 -8.9480053639176910e-02
7.510510510510511e-03  9.9988879983991064e-01 -8.9647381280116900e-02  1.4937412162632320e-03  8.9523345631577868e+01  1.4937412162632320e-03  8.9523345631577868e+01  9.9988879983991075e-01 -8.9647381280116886e-02
7.518018018018019e-03  9.9988879490945437e-01 -8.9815346673044236e-02  1.4966016588199235e-03  8.9523892353894681e+01  1.4966016588199235e-03  8.9523892353894681e+01  9.9988879490945448e-01 -8.9815346673044222e-02
7.525525525525526e-03  9.9988878994773001e-01 -8.9983955641819657e-02  1.4994733327657356e-03  8.9524438355434143e+01  1.4994733327657358e-03  8.9524438355434143e+01  9.9988878994773012e-01 -8.9983955641819657e-02
7.533033033033034e-03  9.9988878495440858e-01 -9.0153214081164126e-02  1.5023563409718448e-03  8.9524983638102540e+01  1.5023563409718448e-03  8.9524983638102540e+01  9.9988878495440847e-01 -9.0153214081164126e-02
7.540540540540541e-03  9.9988877992915626e-01 -9.0323127957740140e-02  1.5052507875649129e-03  8.9525528203756892e+01  1.5052507875649125e-03  8.9525528203756892e+01  9.9988877992915626e-01 -9.0323127957740140e-02
7.548048048048049e-03  9.9988877487163452e-01 -9.0493703311253212e-02  1.5081567779463116e-03  8.9526072054204107e+01  1.5081567779463121e-03  8.9526072054204107e+01  9.9988877487163463e-01 -9.0493703311253212e-02
7.555555555555557e-03  9.9988876978149976e-01 -9.0664946255573628e-02  1.5110744188116983e-03  8.9526615191200278e+01  1.5110744188116985e-03  8.9526615191200278e+01  9.9988876978149988e-01 -9.0664946255573642e-02
7.563063063063064e-03  9.9988876465840348e-01 -9.0836862979879029e-02  1.5140038181709540e-03  8.9527157616449713e+01  1.5140038181709545e-03  8.9527157616449713e+01  9.9988876465840348e-01 -9.0836862979879016e-02
7.570570570570571e-03  9.9988875950199319e-01 -9.1009459749817945e-02  1.5169450853684929e-03  8.9527699331604140e+01  1.5169450853684933e-03  8.9527699331604140e+01  9.9988875950199330e-01 -9.1009459749817931e-02
7.578078078078079e-03  9.9988875431190960e-01 -9.1182742908694991e-02  1.5198983311039422e-03  8.9528240338261796e+01  1.5198983311039420e-03  8.9528240338261796e+01  9.9988875431190993e-01 -9.1182742908694991e-02
7.585585585585587e-03  9.9988874908778991e-01 -9.1356718878678536e-02  1.5228636674532176e-03  8.9528780637966591e+01  1.5228636674532176e-03  8.9528780637966591e+01  9.9988874908779002e-01 -9.1356718878678522e-02
7.593093093093094e-03  9.9988874382926474e-01 -9.1531394162030433e-02  1.5258412078899869e-03  8.9529320232207084e+01  1.5258412078899871e-03  8.9529320232207084e+01  9.9988874382926485e-01 -9.1531394162030447e-02
7.600600600600600e-03  9.9988873853595994e-01 -9.1706775342359423e-02  1.5288310673075402e-03  8.9529859122415573e+01  1.5288310673075400e-03  8.9529859122415573e+01  9.9988873853595994e-01 -9.1706775342359451e-02
7.608108108108108e-03  9.9988873320749638e-01 -9.1882869085897587e-02  1.5318333620410686e-03  8.9530397309967171e+01  1.5318333620410690e-03  8.9530397309967171e+01  9.9988873320749638e-01 -9.1882869085897559e-02
7.615615615615616e-03  9.9988872784348815e-01 -9.2059682142801011e-02  1.5348482098903632e-03  8.9530934796178727e+01  1.5348482098903632e-03  8.9530934796178727e+01  9.9988872784348815e-01 -9.2059682142801011e-02
7.623123123123124e-03  9.9988872244354476e-01 -9.2237221348475881e-02  1.5378757301429521e-03  8.9531471582307915e+01  1.5378757301429521e-03  8.9531471582307915e+01  9.9988872244354443e-01 -9.2237221348475895e-02
7.630630630630631e-03  9.9988871700726922e-01 -9.2415493624928360e-02  1.5409160435976657e-03  8.9532007669552044e+01  1.5409160435976657e-03  8.9532007669552044e+01  9.9988871700726922e-01 -9.2415493624928347e-02
7.638138138138138e-03  9.9988871153425929e-01 -9.2594505982141584e-02  1.5439692725886603e-03  8.9532543059047129e+01  1.5439692725886603e-03  8.9532543059047129e+01  9.9988871153425929e-01 -9.2594505982141570e-02
7.645645645645646e-03  9.9988870602410695e-01 -9.2774265519478191e-02  1.5470355410098992e-03  8.9533077751866713e+01  1.5470355410098992e-03  8.9533077751866713e+01  9.9988870602410673e-01 -9.2774265519478191e-02
7.653153153153154e-03  9.9988870047639644e-01 -9.2954779427110071e-02  1.5501149743401004e-03  8.9533611749020750e+01  1.5501149743401008e-03  8.9533611749020750e+01  9.9988870047639644e-01 -9.2954779427110057e-02
7.660660660660661e-03  9.9988869489070775e-01 -9.3136054987475320e-02  1.5532076996681652e-03  8.9534145051454487e+01  1.5532076996681654e-03  8.9534145051454487e+01  9.9988869489070731e-01 -9.3136054987475320e-02
7.668168168168169e-03  9.9988868926661356e-01 -9.3318099576764207e-02  1.5563138457191097e-03  8.9534677660047308e+01  1.5563138457191095e-03  8.9534677660047308e+01  9.9988868926661378e-01 -9.3318099576764166e-02
7.675675675675676e-03  9.9988868360368111e-01 -9.3500920666432508e-02  1.5594335428804743e-03  8.9535209575611390e+01  1.5594335428804739e-03  8.9535209575611390e+01  9.9988868360368133e-01 -9.3500920666432508e-02
7.683183183183184e-03  9.9988867790146940e-01 -9.3684525824745860e-02  1.5625669232292739e-03  8.9535740798890629e+01  1.5625669232292739e-03  8.9535740798890629e+01  9.9988867790146951e-01 -9.3684525824745846e-02
7.690690690690691e-03  9.9988867215953259e-01 -9.3868922718352857e-02  1.5657141205594552e-03  8.9536271330559302e+01  1.5657141205594552e-03  8.9536271330559302e+01  9.9988867215953237e-01 -9.3868922718352857e-02
